<Qucs Dataset 0.0.17>
<indep time 100>
  +0.00000000000e+000
  +5.05050505051e-003
  +1.01010101010e-002
  +1.51515151515e-002
  +2.02020202020e-002
  +2.52525252525e-002
  +3.03030303030e-002
  +3.53535353535e-002
  +4.04040404040e-002
  +4.54545454545e-002
  +5.05050505051e-002
  +5.55555555556e-002
  +6.06060606061e-002
  +6.56565656566e-002
  +7.07070707071e-002
  +7.57575757576e-002
  +8.08080808081e-002
  +8.58585858586e-002
  +9.09090909091e-002
  +9.59595959596e-002
  +1.01010101010e-001
  +1.06060606061e-001
  +1.11111111111e-001
  +1.16161616162e-001
  +1.21212121212e-001
  +1.26262626263e-001
  +1.31313131313e-001
  +1.36363636364e-001
  +1.41414141414e-001
  +1.46464646465e-001
  +1.51515151515e-001
  +1.56565656566e-001
  +1.61616161616e-001
  +1.66666666667e-001
  +1.71717171717e-001
  +1.76767676768e-001
  +1.81818181818e-001
  +1.86868686869e-001
  +1.91919191919e-001
  +1.96969696970e-001
  +2.02020202020e-001
  +2.07070707071e-001
  +2.12121212121e-001
  +2.17171717172e-001
  +2.22222222222e-001
  +2.27272727273e-001
  +2.32323232323e-001
  +2.37373737374e-001
  +2.42424242424e-001
  +2.47474747475e-001
  +2.52525252525e-001
  +2.57575757576e-001
  +2.62626262626e-001
  +2.67676767677e-001
  +2.72727272727e-001
  +2.77777777778e-001
  +2.82828282828e-001
  +2.87878787879e-001
  +2.92929292929e-001
  +2.97979797980e-001
  +3.03030303030e-001
  +3.08080808081e-001
  +3.13131313131e-001
  +3.18181818182e-001
  +3.23232323232e-001
  +3.28282828283e-001
  +3.33333333333e-001
  +3.38383838384e-001
  +3.43434343434e-001
  +3.48484848485e-001
  +3.53535353535e-001
  +3.58585858586e-001
  +3.63636363636e-001
  +3.68686868687e-001
  +3.73737373737e-001
  +3.78787878788e-001
  +3.83838383838e-001
  +3.88888888889e-001
  +3.93939393939e-001
  +3.98989898990e-001
  +4.04040404040e-001
  +4.09090909091e-001
  +4.14141414141e-001
  +4.19191919192e-001
  +4.24242424242e-001
  +4.29292929293e-001
  +4.34343434343e-001
  +4.39393939394e-001
  +4.44444444444e-001
  +4.49494949495e-001
  +4.54545454545e-001
  +4.59595959596e-001
  +4.64646464646e-001
  +4.69696969697e-001
  +4.74747474747e-001
  +4.79797979798e-001
  +4.84848484848e-001
  +4.89898989899e-001
  +4.94949494949e-001
  +5.00000000000e-001
</indep>
<dep V1.It time>
  -4.20534211455e-004
  -4.20534211455e-004
  -4.20534211455e-004
  -4.20534211455e-004
  -4.20534211455e-004
  -4.20534211455e-004
  -4.20534211455e-004
  -4.20534211455e-004
  -4.20534211455e-004
  -4.20534211455e-004
  -4.20534211455e-004
  -4.20534211455e-004
  -4.20534211455e-004
  -4.20534211455e-004
  -4.20534211455e-004
  -4.20534211455e-004
  -4.20534211455e-004
  -4.20534211455e-004
  -4.20534211455e-004
  -4.20534211455e-004
  -4.20534211455e-004
  -4.20534211455e-004
  -4.20534211455e-004
  -4.20534211455e-004
  -4.20534211455e-004
  -4.20534211455e-004
  -4.20534211455e-004
  -4.20534211455e-004
  -4.20534211455e-004
  -4.20534211455e-004
  -4.20534211455e-004
  -4.20534211455e-004
  -4.20534211455e-004
  -4.20534211455e-004
  -4.20534211455e-004
  -4.20534211455e-004
  -4.20534211455e-004
  -4.20534211455e-004
  -4.20534211455e-004
  -4.20534211455e-004
  -4.20534211455e-004
  -4.20534211455e-004
  -4.20534211455e-004
  -4.20534211455e-004
  -4.20534211455e-004
  -4.20534211455e-004
  -4.20534211455e-004
  -4.20534211455e-004
  -4.20534211455e-004
  -4.20534211455e-004
  -4.20534211455e-004
  -4.20534211455e-004
  -4.20534211455e-004
  -4.20534211455e-004
  -4.20534211455e-004
  -4.20534211455e-004
  -4.20534211455e-004
  -4.20534211455e-004
  -4.20534211455e-004
  -4.20534211455e-004
  -4.20534211455e-004
  -4.20534211455e-004
  -4.20534211455e-004
  -4.20534211455e-004
  -4.20534211455e-004
  -4.20534211455e-004
  -4.20534211455e-004
  -4.20534211455e-004
  -4.20534211455e-004
  -4.20534211455e-004
  -4.20534211455e-004
  -4.20534211455e-004
  -4.20534211455e-004
  -4.20534211455e-004
  -4.20534211455e-004
  -4.20534211455e-004
  -4.20534211455e-004
  -4.20534211455e-004
  -4.20534211455e-004
  -4.20534211455e-004
  -4.20534211455e-004
  -4.20534211455e-004
  -4.20534211455e-004
  -4.20534211455e-004
  -4.20534211455e-004
  -4.20534211455e-004
  -4.20534211455e-004
  -4.20534211455e-004
  -4.20534211455e-004
  -4.20534211455e-004
  -4.20534211455e-004
  -4.20534211455e-004
  -4.20534211455e-004
  -4.20534211455e-004
  -4.20534211455e-004
  -4.20534211455e-004
  -4.20534211455e-004
  -4.20534211455e-004
  -4.20534211455e-004
  -4.20534211455e-004
</dep>
<dep out.Vt time>
  +2.05829967862e-001
  +2.05829968086e-001
  +2.05829968413e-001
  +2.05829967224e-001
  +2.05829966942e-001
  +2.05829966482e-001
  +2.05829965701e-001
  +2.05829965133e-001
  +2.05829965458e-001
  +2.05829965473e-001
  +2.05829965466e-001
  +2.05829965297e-001
  +2.05829965030e-001
  +2.05829964526e-001
  +2.05829964258e-001
  +2.05829964235e-001
  +2.05829963591e-001
  +2.05829963023e-001
  +2.05829962561e-001
  +2.05829962188e-001
  +2.05829962423e-001
  +2.05829961452e-001
  +2.05829961146e-001
  +2.05829961060e-001
  +2.05829961258e-001
  +2.05829960916e-001
  +2.05829960480e-001
  +2.05829959615e-001
  +2.05829959776e-001
  +2.05829959528e-001
  +2.05829958274e-001
  +2.05829957070e-001
  +2.05829956329e-001
  +2.05829955855e-001
  +2.05829955937e-001
  +2.05829955936e-001
  +2.05829955710e-001
  +2.05829955612e-001
  +2.05829955323e-001
  +2.05829954724e-001
  +2.05829954459e-001
  +2.05829954189e-001
  +2.05829953450e-001
  +2.05829952365e-001
  +2.05829952449e-001
  +2.05829951191e-001
  +2.05829951761e-001
  +2.05829951471e-001
  +2.05829951349e-001
  +2.05829950535e-001
  +2.05829949353e-001
  +2.05829948941e-001
  +2.05829948524e-001
  +2.05829947727e-001
  +2.05829946444e-001
  +2.05829946079e-001
  +2.05829945510e-001
  +2.05829944936e-001
  +2.05829944071e-001
  +2.05829943562e-001
  +2.05829942977e-001
  +2.05829942756e-001
  +2.05829942350e-001
  +2.05829942773e-001
  +2.05829942692e-001
  +2.05829942049e-001
  +2.05829941309e-001
  +2.05829941061e-001
  +2.05829940827e-001
  +2.05829940493e-001
  +2.05829939730e-001
  +2.05829940034e-001
  +2.05829939463e-001
  +2.05829939032e-001
  +2.05829938555e-001
  +2.05829937828e-001
  +2.05829937024e-001
  +2.05829936970e-001
  +2.05829936960e-001
  +2.05829936717e-001
  +2.05829936126e-001
  +2.05829935759e-001
  +2.05829935659e-001
  +2.05829935974e-001
  +2.05829936468e-001
  +2.05829936349e-001
  +2.05829935119e-001
  +2.05829933995e-001
  +2.05829933842e-001
  +2.05829933442e-001
  +2.05829932422e-001
  +2.05829931853e-001
  +2.05829930764e-001
  +2.05829930637e-001
  +2.05829929765e-001
  +2.05829929119e-001
  +2.05829928684e-001
  +2.05829928808e-001
  +2.05829928845e-001
  +2.05829928458e-001
</dep>
<dep Uref.Vt time>
  +1.03403702234e-001
  +1.03403702234e-001
  +1.03403702234e-001
  +1.03403702234e-001
  +1.03403702234e-001
  +1.03403702234e-001
  +1.03403702234e-001
  +1.03403702234e-001
  +1.03403702234e-001
  +1.03403702234e-001
  +1.03403702234e-001
  +1.03403702234e-001
  +1.03403702234e-001
  +1.03403702234e-001
  +1.03403702234e-001
  +1.03403702234e-001
  +1.03403702234e-001
  +1.03403702234e-001
  +1.03403702234e-001
  +1.03403702234e-001
  +1.03403702234e-001
  +1.03403702234e-001
  +1.03403702234e-001
  +1.03403702234e-001
  +1.03403702234e-001
  +1.03403702234e-001
  +1.03403702234e-001
  +1.03403702234e-001
  +1.03403702234e-001
  +1.03403702234e-001
  +1.03403702234e-001
  +1.03403702234e-001
  +1.03403702234e-001
  +1.03403702234e-001
  +1.03403702234e-001
  +1.03403702234e-001
  +1.03403702234e-001
  +1.03403702234e-001
  +1.03403702234e-001
  +1.03403702234e-001
  +1.03403702234e-001
  +1.03403702234e-001
  +1.03403702234e-001
  +1.03403702234e-001
  +1.03403702234e-001
  +1.03403702234e-001
  +1.03403702234e-001
  +1.03403702234e-001
  +1.03403702234e-001
  +1.03403702234e-001
  +1.03403702234e-001
  +1.03403702234e-001
  +1.03403702234e-001
  +1.03403702234e-001
  +1.03403702234e-001
  +1.03403702234e-001
  +1.03403702234e-001
  +1.03403702234e-001
  +1.03403702234e-001
  +1.03403702234e-001
  +1.03403702234e-001
  +1.03403702234e-001
  +1.03403702234e-001
  +1.03403702234e-001
  +1.03403702234e-001
  +1.03403702234e-001
  +1.03403702234e-001
  +1.03403702234e-001
  +1.03403702234e-001
  +1.03403702234e-001
  +1.03403702234e-001
  +1.03403702234e-001
  +1.03403702234e-001
  +1.03403702234e-001
  +1.03403702234e-001
  +1.03403702234e-001
  +1.03403702234e-001
  +1.03403702234e-001
  +1.03403702234e-001
  +1.03403702234e-001
  +1.03403702234e-001
  +1.03403702234e-001
  +1.03403702234e-001
  +1.03403702234e-001
  +1.03403702234e-001
  +1.03403702234e-001
  +1.03403702234e-001
  +1.03403702234e-001
  +1.03403702234e-001
  +1.03403702234e-001
  +1.03403702234e-001
  +1.03403702234e-001
  +1.03403702234e-001
  +1.03403702234e-001
  +1.03403702234e-001
  +1.03403702234e-001
  +1.03403702234e-001
  +1.03403702234e-001
  +1.03403702234e-001
  +1.03403702234e-001
</dep>
<dep Uin.Vt time>
  +2.00000000000e+000
  +2.00000000000e+000
  +2.00000000000e+000
  +2.00000000000e+000
  +2.00000000000e+000
  +2.00000000000e+000
  +2.00000000000e+000
  +2.00000000000e+000
  +2.00000000000e+000
  +2.00000000000e+000
  +2.00000000000e+000
  +2.00000000000e+000
  +2.00000000000e+000
  +2.00000000000e+000
  +2.00000000000e+000
  +2.00000000000e+000
  +2.00000000000e+000
  +2.00000000000e+000
  +2.00000000000e+000
  +2.00000000000e+000
  +2.00000000000e+000
  +2.00000000000e+000
  +2.00000000000e+000
  +2.00000000000e+000
  +2.00000000000e+000
  +2.00000000000e+000
  +2.00000000000e+000
  +2.00000000000e+000
  +2.00000000000e+000
  +2.00000000000e+000
  +2.00000000000e+000
  +2.00000000000e+000
  +2.00000000000e+000
  +2.00000000000e+000
  +2.00000000000e+000
  +2.00000000000e+000
  +2.00000000000e+000
  +2.00000000000e+000
  +2.00000000000e+000
  +2.00000000000e+000
  +2.00000000000e+000
  +2.00000000000e+000
  +2.00000000000e+000
  +2.00000000000e+000
  +2.00000000000e+000
  +2.00000000000e+000
  +2.00000000000e+000
  +2.00000000000e+000
  +2.00000000000e+000
  +2.00000000000e+000
  +2.00000000000e+000
  +2.00000000000e+000
  +2.00000000000e+000
  +2.00000000000e+000
  +2.00000000000e+000
  +2.00000000000e+000
  +2.00000000000e+000
  +2.00000000000e+000
  +2.00000000000e+000
  +2.00000000000e+000
  +2.00000000000e+000
  +2.00000000000e+000
  +2.00000000000e+000
  +2.00000000000e+000
  +2.00000000000e+000
  +2.00000000000e+000
  +2.00000000000e+000
  +2.00000000000e+000
  +2.00000000000e+000
  +2.00000000000e+000
  +2.00000000000e+000
  +2.00000000000e+000
  +2.00000000000e+000
  +2.00000000000e+000
  +2.00000000000e+000
  +2.00000000000e+000
  +2.00000000000e+000
  +2.00000000000e+000
  +2.00000000000e+000
  +2.00000000000e+000
  +2.00000000000e+000
  +2.00000000000e+000
  +2.00000000000e+000
  +2.00000000000e+000
  +2.00000000000e+000
  +2.00000000000e+000
  +2.00000000000e+000
  +2.00000000000e+000
  +2.00000000000e+000
  +2.00000000000e+000
  +2.00000000000e+000
  +2.00000000000e+000
  +2.00000000000e+000
  +2.00000000000e+000
  +2.00000000000e+000
  +2.00000000000e+000
  +2.00000000000e+000
  +2.00000000000e+000
  +2.00000000000e+000
  +2.00000000000e+000
</dep>
<dep Vreg.Vt time>
  +3.10211106700e-001
  +3.10211106700e-001
  +3.10211106700e-001
  +3.10211106700e-001
  +3.10211106700e-001
  +3.10211106700e-001
  +3.10211106700e-001
  +3.10211106700e-001
  +3.10211106700e-001
  +3.10211106700e-001
  +3.10211106700e-001
  +3.10211106700e-001
  +3.10211106700e-001
  +3.10211106700e-001
  +3.10211106700e-001
  +3.10211106700e-001
  +3.10211106700e-001
  +3.10211106700e-001
  +3.10211106700e-001
  +3.10211106700e-001
  +3.10211106700e-001
  +3.10211106700e-001
  +3.10211106700e-001
  +3.10211106700e-001
  +3.10211106700e-001
  +3.10211106700e-001
  +3.10211106700e-001
  +3.10211106700e-001
  +3.10211106700e-001
  +3.10211106700e-001
  +3.10211106700e-001
  +3.10211106700e-001
  +3.10211106700e-001
  +3.10211106700e-001
  +3.10211106700e-001
  +3.10211106700e-001
  +3.10211106700e-001
  +3.10211106700e-001
  +3.10211106700e-001
  +3.10211106700e-001
  +3.10211106700e-001
  +3.10211106700e-001
  +3.10211106700e-001
  +3.10211106700e-001
  +3.10211106700e-001
  +3.10211106700e-001
  +3.10211106700e-001
  +3.10211106700e-001
  +3.10211106700e-001
  +3.10211106700e-001
  +3.10211106700e-001
  +3.10211106700e-001
  +3.10211106700e-001
  +3.10211106700e-001
  +3.10211106700e-001
  +3.10211106700e-001
  +3.10211106700e-001
  +3.10211106700e-001
  +3.10211106700e-001
  +3.10211106700e-001
  +3.10211106700e-001
  +3.10211106700e-001
  +3.10211106700e-001
  +3.10211106700e-001
  +3.10211106700e-001
  +3.10211106700e-001
  +3.10211106700e-001
  +3.10211106700e-001
  +3.10211106700e-001
  +3.10211106700e-001
  +3.10211106700e-001
  +3.10211106700e-001
  +3.10211106700e-001
  +3.10211106700e-001
  +3.10211106700e-001
  +3.10211106700e-001
  +3.10211106700e-001
  +3.10211106700e-001
  +3.10211106700e-001
  +3.10211106700e-001
  +3.10211106700e-001
  +3.10211106700e-001
  +3.10211106700e-001
  +3.10211106700e-001
  +3.10211106700e-001
  +3.10211106700e-001
  +3.10211106700e-001
  +3.10211106700e-001
  +3.10211106700e-001
  +3.10211106700e-001
  +3.10211106700e-001
  +3.10211106700e-001
  +3.10211106700e-001
  +3.10211106700e-001
  +3.10211106700e-001
  +3.10211106700e-001
  +3.10211106700e-001
  +3.10211106700e-001
  +3.10211106700e-001
  +3.10211106700e-001
</dep>
