<Qucs Dataset 0.0.17>
<indep time 100>
  +0.00000000000e+000
  +5.05050505051e-003
  +1.01010101010e-002
  +1.51515151515e-002
  +2.02020202020e-002
  +2.52525252525e-002
  +3.03030303030e-002
  +3.53535353535e-002
  +4.04040404040e-002
  +4.54545454545e-002
  +5.05050505051e-002
  +5.55555555556e-002
  +6.06060606061e-002
  +6.56565656566e-002
  +7.07070707071e-002
  +7.57575757576e-002
  +8.08080808081e-002
  +8.58585858586e-002
  +9.09090909091e-002
  +9.59595959596e-002
  +1.01010101010e-001
  +1.06060606061e-001
  +1.11111111111e-001
  +1.16161616162e-001
  +1.21212121212e-001
  +1.26262626263e-001
  +1.31313131313e-001
  +1.36363636364e-001
  +1.41414141414e-001
  +1.46464646465e-001
  +1.51515151515e-001
  +1.56565656566e-001
  +1.61616161616e-001
  +1.66666666667e-001
  +1.71717171717e-001
  +1.76767676768e-001
  +1.81818181818e-001
  +1.86868686869e-001
  +1.91919191919e-001
  +1.96969696970e-001
  +2.02020202020e-001
  +2.07070707071e-001
  +2.12121212121e-001
  +2.17171717172e-001
  +2.22222222222e-001
  +2.27272727273e-001
  +2.32323232323e-001
  +2.37373737374e-001
  +2.42424242424e-001
  +2.47474747475e-001
  +2.52525252525e-001
  +2.57575757576e-001
  +2.62626262626e-001
  +2.67676767677e-001
  +2.72727272727e-001
  +2.77777777778e-001
  +2.82828282828e-001
  +2.87878787879e-001
  +2.92929292929e-001
  +2.97979797980e-001
  +3.03030303030e-001
  +3.08080808081e-001
  +3.13131313131e-001
  +3.18181818182e-001
  +3.23232323232e-001
  +3.28282828283e-001
  +3.33333333333e-001
  +3.38383838384e-001
  +3.43434343434e-001
  +3.48484848485e-001
  +3.53535353535e-001
  +3.58585858586e-001
  +3.63636363636e-001
  +3.68686868687e-001
  +3.73737373737e-001
  +3.78787878788e-001
  +3.83838383838e-001
  +3.88888888889e-001
  +3.93939393939e-001
  +3.98989898990e-001
  +4.04040404040e-001
  +4.09090909091e-001
  +4.14141414141e-001
  +4.19191919192e-001
  +4.24242424242e-001
  +4.29292929293e-001
  +4.34343434343e-001
  +4.39393939394e-001
  +4.44444444444e-001
  +4.49494949495e-001
  +4.54545454545e-001
  +4.59595959596e-001
  +4.64646464646e-001
  +4.69696969697e-001
  +4.74747474747e-001
  +4.79797979798e-001
  +4.84848484848e-001
  +4.89898989899e-001
  +4.94949494949e-001
  +5.00000000000e-001
</indep>
<dep V1.It time>
  -6.87451575399e-003
  -6.87451575400e-003
  -6.87451575399e-003
  -6.87451575399e-003
  -6.87451575400e-003
  -6.87451575399e-003
  -6.87451575399e-003
  -6.87451575399e-003
  -6.87451575399e-003
  -6.87451575399e-003
  -6.87451575399e-003
  -6.87451575399e-003
  -6.87451575399e-003
  -6.87451575399e-003
  -6.87451575400e-003
  -6.87451575399e-003
  -6.87451575399e-003
  -6.87451575399e-003
  -6.87451575399e-003
  -6.87451575399e-003
  -6.87451575399e-003
  -6.87451575399e-003
  -6.87451575399e-003
  -6.87451575399e-003
  -6.87451575400e-003
  -6.87451575399e-003
  -6.87451575399e-003
  -6.87451575399e-003
  -6.87451575399e-003
  -6.87451575399e-003
  -6.87451575399e-003
  -6.87451575399e-003
  -6.87451575399e-003
  -6.87451575399e-003
  -6.87451575399e-003
  -6.87451575399e-003
  -6.87451575399e-003
  -6.87451575399e-003
  -6.87451575399e-003
  -6.87451575399e-003
  -6.87451575400e-003
  -6.87451575399e-003
  -6.87451575399e-003
  -6.87451575399e-003
  -6.87451575400e-003
  -6.87451575399e-003
  -6.87451575399e-003
  -6.87451575399e-003
  -6.87451575399e-003
  -6.87451575399e-003
  -6.87451575399e-003
  -6.87451575399e-003
  -6.87451575399e-003
  -6.87451575399e-003
  -6.87451575399e-003
  -6.87451575399e-003
  -6.87451575399e-003
  -6.87451575399e-003
  -6.87451575399e-003
  -6.87451575399e-003
  -6.87451575399e-003
  -6.87451575399e-003
  -6.87451575399e-003
  -6.87451575399e-003
  -6.87451575399e-003
  -6.87451575399e-003
  -6.87451575399e-003
  -6.87451575399e-003
  -6.87451575399e-003
  -6.87451575399e-003
  -6.87451575399e-003
  -6.87451575399e-003
  -6.87451575399e-003
  -6.87451575399e-003
  -6.87451575399e-003
  -6.87451575399e-003
  -6.87451575399e-003
  -6.87451575399e-003
  -6.87451575399e-003
  -6.87451575399e-003
  -6.87451575399e-003
  -6.87451575399e-003
  -6.87451575399e-003
  -6.87451575399e-003
  -6.87451575399e-003
  -6.87451575399e-003
  -6.87451575399e-003
  -6.87451575399e-003
  -6.87451575399e-003
  -6.87451575399e-003
  -6.87451575399e-003
  -6.87451575399e-003
  -6.87451575399e-003
  -6.87451575399e-003
  -6.87451575399e-003
  -6.87451575399e-003
  -6.87451575399e-003
  -6.87451575399e-003
  -6.87451575399e-003
  -6.87451575399e-003
</dep>
<dep out.Vt time>
  +4.97666072937e+000
  +4.97666074127e+000
  +4.97666075232e+000
  +4.97666075272e+000
  +4.97666076469e+000
  +4.97666077045e+000
  +4.97666078361e+000
  +4.97666079306e+000
  +4.97666079315e+000
  +4.97666080165e+000
  +4.97666080277e+000
  +4.97666080627e+000
  +4.97666080641e+000
  +4.97666081146e+000
  +4.97666081351e+000
  +4.97666081800e+000
  +4.97666082831e+000
  +4.97666083622e+000
  +4.97666084190e+000
  +4.97666084641e+000
  +4.97666084799e+000
  +4.97666085135e+000
  +4.97666085511e+000
  +4.97666085459e+000
  +4.97666085599e+000
  +4.97666085816e+000
  +4.97666085927e+000
  +4.97666085477e+000
  +4.97666085340e+000
  +4.97666085691e+000
  +4.97666085552e+000
  +4.97666086622e+000
  +4.97666086823e+000
  +4.97666087348e+000
  +4.97666087718e+000
  +4.97666088122e+000
  +4.97666088171e+000
  +4.97666088447e+000
  +4.97666088798e+000
  +4.97666088107e+000
  +4.97666088475e+000
  +4.97666088720e+000
  +4.97666089011e+000
  +4.97666088926e+000
  +4.97666089116e+000
  +4.97666088588e+000
  +4.97666088377e+000
  +4.97666088408e+000
  +4.97666088562e+000
  +4.97666089083e+000
  +4.97666089376e+000
  +4.97666089861e+000
  +4.97666090131e+000
  +4.97666090516e+000
  +4.97666090709e+000
  +4.97666091151e+000
  +4.97666091119e+000
  +4.97666091427e+000
  +4.97666091206e+000
  +4.97666090552e+000
  +4.97666090428e+000
  +4.97666090651e+000
  +4.97666090160e+000
  +4.97666090301e+000
  +4.97666090990e+000
  +4.97666090406e+000
  +4.97666091021e+000
  +4.97666091657e+000
  +4.97666091725e+000
  +4.97666091756e+000
  +4.97666091602e+000
  +4.97666091864e+000
  +4.97666092130e+000
  +4.97666092671e+000
  +4.97666092684e+000
  +4.97666092206e+000
  +4.97666092856e+000
  +4.97666092225e+000
  +4.97666092285e+000
  +4.97666092480e+000
  +4.97666092287e+000
  +4.97666092343e+000
  +4.97666093066e+000
  +4.97666092883e+000
  +4.97666093074e+000
  +4.97666092861e+000
  +4.97666092067e+000
  +4.97666091799e+000
  +4.97666092323e+000
  +4.97666093101e+000
  +4.97666094043e+000
  +4.97666094114e+000
  +4.97666093923e+000
  +4.97666093944e+000
  +4.97666093223e+000
  +4.97666093480e+000
  +4.97666093716e+000
  +4.97666094158e+000
  +4.97666094218e+000
  +4.97666093820e+000
</dep>
<dep Uref.Vt time>
  +1.66716007466e+000
  +1.66716007466e+000
  +1.66716007466e+000
  +1.66716007466e+000
  +1.66716007466e+000
  +1.66716007466e+000
  +1.66716007466e+000
  +1.66716007466e+000
  +1.66716007466e+000
  +1.66716007466e+000
  +1.66716007466e+000
  +1.66716007466e+000
  +1.66716007466e+000
  +1.66716007466e+000
  +1.66716007466e+000
  +1.66716007466e+000
  +1.66716007466e+000
  +1.66716007466e+000
  +1.66716007466e+000
  +1.66716007466e+000
  +1.66716007466e+000
  +1.66716007466e+000
  +1.66716007466e+000
  +1.66716007466e+000
  +1.66716007466e+000
  +1.66716007466e+000
  +1.66716007466e+000
  +1.66716007466e+000
  +1.66716007466e+000
  +1.66716007466e+000
  +1.66716007466e+000
  +1.66716007466e+000
  +1.66716007466e+000
  +1.66716007466e+000
  +1.66716007466e+000
  +1.66716007466e+000
  +1.66716007466e+000
  +1.66716007466e+000
  +1.66716007466e+000
  +1.66716007466e+000
  +1.66716007466e+000
  +1.66716007466e+000
  +1.66716007466e+000
  +1.66716007466e+000
  +1.66716007466e+000
  +1.66716007466e+000
  +1.66716007466e+000
  +1.66716007466e+000
  +1.66716007466e+000
  +1.66716007466e+000
  +1.66716007466e+000
  +1.66716007466e+000
  +1.66716007466e+000
  +1.66716007466e+000
  +1.66716007466e+000
  +1.66716007466e+000
  +1.66716007466e+000
  +1.66716007466e+000
  +1.66716007466e+000
  +1.66716007466e+000
  +1.66716007466e+000
  +1.66716007466e+000
  +1.66716007466e+000
  +1.66716007466e+000
  +1.66716007466e+000
  +1.66716007466e+000
  +1.66716007466e+000
  +1.66716007466e+000
  +1.66716007466e+000
  +1.66716007466e+000
  +1.66716007466e+000
  +1.66716007466e+000
  +1.66716007466e+000
  +1.66716007466e+000
  +1.66716007466e+000
  +1.66716007466e+000
  +1.66716007466e+000
  +1.66716007466e+000
  +1.66716007466e+000
  +1.66716007466e+000
  +1.66716007466e+000
  +1.66716007466e+000
  +1.66716007466e+000
  +1.66716007466e+000
  +1.66716007466e+000
  +1.66716007466e+000
  +1.66716007466e+000
  +1.66716007466e+000
  +1.66716007466e+000
  +1.66716007466e+000
  +1.66716007466e+000
  +1.66716007466e+000
  +1.66716007466e+000
  +1.66716007466e+000
  +1.66716007466e+000
  +1.66716007466e+000
  +1.66716007466e+000
  +1.66716007466e+000
  +1.66716007466e+000
  +1.66716007466e+000
</dep>
<dep Uin.Vt time>
  +9.00000000000e+000
  +9.00000000000e+000
  +9.00000000000e+000
  +9.00000000000e+000
  +9.00000000000e+000
  +9.00000000000e+000
  +9.00000000000e+000
  +9.00000000000e+000
  +9.00000000000e+000
  +9.00000000000e+000
  +9.00000000000e+000
  +9.00000000000e+000
  +9.00000000000e+000
  +9.00000000000e+000
  +9.00000000000e+000
  +9.00000000000e+000
  +9.00000000000e+000
  +9.00000000000e+000
  +9.00000000000e+000
  +9.00000000000e+000
  +9.00000000000e+000
  +9.00000000000e+000
  +9.00000000000e+000
  +9.00000000000e+000
  +9.00000000000e+000
  +9.00000000000e+000
  +9.00000000000e+000
  +9.00000000000e+000
  +9.00000000000e+000
  +9.00000000000e+000
  +9.00000000000e+000
  +9.00000000000e+000
  +9.00000000000e+000
  +9.00000000000e+000
  +9.00000000000e+000
  +9.00000000000e+000
  +9.00000000000e+000
  +9.00000000000e+000
  +9.00000000000e+000
  +9.00000000000e+000
  +9.00000000000e+000
  +9.00000000000e+000
  +9.00000000000e+000
  +9.00000000000e+000
  +9.00000000000e+000
  +9.00000000000e+000
  +9.00000000000e+000
  +9.00000000000e+000
  +9.00000000000e+000
  +9.00000000000e+000
  +9.00000000000e+000
  +9.00000000000e+000
  +9.00000000000e+000
  +9.00000000000e+000
  +9.00000000000e+000
  +9.00000000000e+000
  +9.00000000000e+000
  +9.00000000000e+000
  +9.00000000000e+000
  +9.00000000000e+000
  +9.00000000000e+000
  +9.00000000000e+000
  +9.00000000000e+000
  +9.00000000000e+000
  +9.00000000000e+000
  +9.00000000000e+000
  +9.00000000000e+000
  +9.00000000000e+000
  +9.00000000000e+000
  +9.00000000000e+000
  +9.00000000000e+000
  +9.00000000000e+000
  +9.00000000000e+000
  +9.00000000000e+000
  +9.00000000000e+000
  +9.00000000000e+000
  +9.00000000000e+000
  +9.00000000000e+000
  +9.00000000000e+000
  +9.00000000000e+000
  +9.00000000000e+000
  +9.00000000000e+000
  +9.00000000000e+000
  +9.00000000000e+000
  +9.00000000000e+000
  +9.00000000000e+000
  +9.00000000000e+000
  +9.00000000000e+000
  +9.00000000000e+000
  +9.00000000000e+000
  +9.00000000000e+000
  +9.00000000000e+000
  +9.00000000000e+000
  +9.00000000000e+000
  +9.00000000000e+000
  +9.00000000000e+000
  +9.00000000000e+000
  +9.00000000000e+000
  +9.00000000000e+000
  +9.00000000000e+000
</dep>
<dep Vreg.Vt time>
  +5.00148022397e+000
  +5.00148022397e+000
  +5.00148022397e+000
  +5.00148022397e+000
  +5.00148022397e+000
  +5.00148022397e+000
  +5.00148022397e+000
  +5.00148022397e+000
  +5.00148022397e+000
  +5.00148022397e+000
  +5.00148022397e+000
  +5.00148022397e+000
  +5.00148022397e+000
  +5.00148022397e+000
  +5.00148022397e+000
  +5.00148022397e+000
  +5.00148022397e+000
  +5.00148022397e+000
  +5.00148022397e+000
  +5.00148022397e+000
  +5.00148022397e+000
  +5.00148022397e+000
  +5.00148022397e+000
  +5.00148022397e+000
  +5.00148022397e+000
  +5.00148022397e+000
  +5.00148022397e+000
  +5.00148022397e+000
  +5.00148022397e+000
  +5.00148022397e+000
  +5.00148022397e+000
  +5.00148022397e+000
  +5.00148022397e+000
  +5.00148022397e+000
  +5.00148022397e+000
  +5.00148022397e+000
  +5.00148022397e+000
  +5.00148022397e+000
  +5.00148022397e+000
  +5.00148022397e+000
  +5.00148022397e+000
  +5.00148022397e+000
  +5.00148022397e+000
  +5.00148022397e+000
  +5.00148022397e+000
  +5.00148022397e+000
  +5.00148022397e+000
  +5.00148022397e+000
  +5.00148022397e+000
  +5.00148022397e+000
  +5.00148022397e+000
  +5.00148022397e+000
  +5.00148022397e+000
  +5.00148022397e+000
  +5.00148022397e+000
  +5.00148022397e+000
  +5.00148022397e+000
  +5.00148022397e+000
  +5.00148022397e+000
  +5.00148022397e+000
  +5.00148022397e+000
  +5.00148022397e+000
  +5.00148022397e+000
  +5.00148022397e+000
  +5.00148022397e+000
  +5.00148022397e+000
  +5.00148022397e+000
  +5.00148022397e+000
  +5.00148022397e+000
  +5.00148022397e+000
  +5.00148022397e+000
  +5.00148022397e+000
  +5.00148022397e+000
  +5.00148022397e+000
  +5.00148022397e+000
  +5.00148022397e+000
  +5.00148022397e+000
  +5.00148022397e+000
  +5.00148022397e+000
  +5.00148022397e+000
  +5.00148022397e+000
  +5.00148022397e+000
  +5.00148022397e+000
  +5.00148022397e+000
  +5.00148022397e+000
  +5.00148022397e+000
  +5.00148022397e+000
  +5.00148022397e+000
  +5.00148022397e+000
  +5.00148022397e+000
  +5.00148022397e+000
  +5.00148022397e+000
  +5.00148022397e+000
  +5.00148022397e+000
  +5.00148022397e+000
  +5.00148022397e+000
  +5.00148022397e+000
  +5.00148022397e+000
  +5.00148022397e+000
  +5.00148022397e+000
</dep>
