<Qucs Dataset 0.0.17>
<indep time 100>
  +0.00000000000e+000
  +5.05050505051e-003
  +1.01010101010e-002
  +1.51515151515e-002
  +2.02020202020e-002
  +2.52525252525e-002
  +3.03030303030e-002
  +3.53535353535e-002
  +4.04040404040e-002
  +4.54545454545e-002
  +5.05050505051e-002
  +5.55555555556e-002
  +6.06060606061e-002
  +6.56565656566e-002
  +7.07070707071e-002
  +7.57575757576e-002
  +8.08080808081e-002
  +8.58585858586e-002
  +9.09090909091e-002
  +9.59595959596e-002
  +1.01010101010e-001
  +1.06060606061e-001
  +1.11111111111e-001
  +1.16161616162e-001
  +1.21212121212e-001
  +1.26262626263e-001
  +1.31313131313e-001
  +1.36363636364e-001
  +1.41414141414e-001
  +1.46464646465e-001
  +1.51515151515e-001
  +1.56565656566e-001
  +1.61616161616e-001
  +1.66666666667e-001
  +1.71717171717e-001
  +1.76767676768e-001
  +1.81818181818e-001
  +1.86868686869e-001
  +1.91919191919e-001
  +1.96969696970e-001
  +2.02020202020e-001
  +2.07070707071e-001
  +2.12121212121e-001
  +2.17171717172e-001
  +2.22222222222e-001
  +2.27272727273e-001
  +2.32323232323e-001
  +2.37373737374e-001
  +2.42424242424e-001
  +2.47474747475e-001
  +2.52525252525e-001
  +2.57575757576e-001
  +2.62626262626e-001
  +2.67676767677e-001
  +2.72727272727e-001
  +2.77777777778e-001
  +2.82828282828e-001
  +2.87878787879e-001
  +2.92929292929e-001
  +2.97979797980e-001
  +3.03030303030e-001
  +3.08080808081e-001
  +3.13131313131e-001
  +3.18181818182e-001
  +3.23232323232e-001
  +3.28282828283e-001
  +3.33333333333e-001
  +3.38383838384e-001
  +3.43434343434e-001
  +3.48484848485e-001
  +3.53535353535e-001
  +3.58585858586e-001
  +3.63636363636e-001
  +3.68686868687e-001
  +3.73737373737e-001
  +3.78787878788e-001
  +3.83838383838e-001
  +3.88888888889e-001
  +3.93939393939e-001
  +3.98989898990e-001
  +4.04040404040e-001
  +4.09090909091e-001
  +4.14141414141e-001
  +4.19191919192e-001
  +4.24242424242e-001
  +4.29292929293e-001
  +4.34343434343e-001
  +4.39393939394e-001
  +4.44444444444e-001
  +4.49494949495e-001
  +4.54545454545e-001
  +4.59595959596e-001
  +4.64646464646e-001
  +4.69696969697e-001
  +4.74747474747e-001
  +4.79797979798e-001
  +4.84848484848e-001
  +4.89898989899e-001
  +4.94949494949e-001
  +5.00000000000e-001
</indep>
<dep V1.It time>
  -6.74110970346e-003
  -6.74110970345e-003
  -6.74110970346e-003
  -6.74110970346e-003
  -6.74110970346e-003
  -6.74110970346e-003
  -6.74110970346e-003
  -6.74110970345e-003
  -6.74110970346e-003
  -6.74110970346e-003
  -6.74110970346e-003
  -6.74110970346e-003
  -6.74110970346e-003
  -6.74110970346e-003
  -6.74110970346e-003
  -6.74110970346e-003
  -6.74110970346e-003
  -6.74110970346e-003
  -6.74110970346e-003
  -6.74110970346e-003
  -6.74110970346e-003
  -6.74110970345e-003
  -6.74110970346e-003
  -6.74110970346e-003
  -6.74110970346e-003
  -6.74110970346e-003
  -6.74110970346e-003
  -6.74110970346e-003
  -6.74110970346e-003
  -6.74110970346e-003
  -6.74110970346e-003
  -6.74110970346e-003
  -6.74110970346e-003
  -6.74110970346e-003
  -6.74110970346e-003
  -6.74110970346e-003
  -6.74110970346e-003
  -6.74110970346e-003
  -6.74110970346e-003
  -6.74110970346e-003
  -6.74110970346e-003
  -6.74110970346e-003
  -6.74110970346e-003
  -6.74110970346e-003
  -6.74110970346e-003
  -6.74110970346e-003
  -6.74110970346e-003
  -6.74110970346e-003
  -6.74110970346e-003
  -6.74110970346e-003
  -6.74110970346e-003
  -6.74110970346e-003
  -6.74110970346e-003
  -6.74110970346e-003
  -6.74110970346e-003
  -6.74110970346e-003
  -6.74110970346e-003
  -6.74110970346e-003
  -6.74110970346e-003
  -6.74110970346e-003
  -6.74110970346e-003
  -6.74110970346e-003
  -6.74110970346e-003
  -6.74110970346e-003
  -6.74110970346e-003
  -6.74110970346e-003
  -6.74110970346e-003
  -6.74110970346e-003
  -6.74110970346e-003
  -6.74110970346e-003
  -6.74110970346e-003
  -6.74110970346e-003
  -6.74110970346e-003
  -6.74110970346e-003
  -6.74110970346e-003
  -6.74110970346e-003
  -6.74110970346e-003
  -6.74110970346e-003
  -6.74110970346e-003
  -6.74110970346e-003
  -6.74110970346e-003
  -6.74110970346e-003
  -6.74110970346e-003
  -6.74110970346e-003
  -6.74110970346e-003
  -6.74110970346e-003
  -6.74110970346e-003
  -6.74110970346e-003
  -6.74110970346e-003
  -6.74110970346e-003
  -6.74110970346e-003
  -6.74110970346e-003
  -6.74110970346e-003
  -6.74110970346e-003
  -6.74110970346e-003
  -6.74110970346e-003
  -6.74110970346e-003
  -6.74110970346e-003
  -6.74110970346e-003
  -6.74110970346e-003
</dep>
<dep out.Vt time>
  +4.97666169771e+000
  +4.97666170657e+000
  +4.97666171325e+000
  +4.97666171051e+000
  +4.97666171593e+000
  +4.97666172629e+000
  +4.97666173129e+000
  +4.97666173969e+000
  +4.97666174858e+000
  +4.97666175801e+000
  +4.97666175867e+000
  +4.97666177064e+000
  +4.97666177297e+000
  +4.97666177111e+000
  +4.97666178013e+000
  +4.97666178503e+000
  +4.97666179256e+000
  +4.97666180042e+000
  +4.97666180938e+000
  +4.97666181315e+000
  +4.97666181787e+000
  +4.97666181525e+000
  +4.97666181988e+000
  +4.97666182531e+000
  +4.97666182718e+000
  +4.97666182542e+000
  +4.97666182457e+000
  +4.97666182709e+000
  +4.97666183247e+000
  +4.97666183012e+000
  +4.97666183102e+000
  +4.97666183691e+000
  +4.97666183958e+000
  +4.97666184410e+000
  +4.97666184356e+000
  +4.97666184460e+000
  +4.97666184218e+000
  +4.97666184319e+000
  +4.97666184263e+000
  +4.97666184510e+000
  +4.97666184622e+000
  +4.97666184640e+000
  +4.97666184779e+000
  +4.97666184949e+000
  +4.97666185311e+000
  +4.97666185754e+000
  +4.97666185665e+000
  +4.97666185794e+000
  +4.97666185262e+000
  +4.97666185050e+000
  +4.97666185626e+000
  +4.97666186276e+000
  +4.97666186509e+000
  +4.97666186563e+000
  +4.97666186597e+000
  +4.97666186812e+000
  +4.97666186143e+000
  +4.97666185713e+000
  +4.97666185846e+000
  +4.97666185460e+000
  +4.97666185628e+000
  +4.97666185390e+000
  +4.97666184811e+000
  +4.97666184960e+000
  +4.97666184661e+000
  +4.97666184672e+000
  +4.97666184280e+000
  +4.97666184401e+000
  +4.97666183814e+000
  +4.97666183562e+000
  +4.97666183721e+000
  +4.97666183737e+000
  +4.97666184181e+000
  +4.97666184749e+000
  +4.97666184744e+000
  +4.97666185326e+000
  +4.97666184844e+000
  +4.97666184586e+000
  +4.97666184887e+000
  +4.97666185092e+000
  +4.97666185436e+000
  +4.97666185572e+000
  +4.97666186472e+000
  +4.97666186574e+000
  +4.97666186254e+000
  +4.97666186231e+000
  +4.97666185713e+000
  +4.97666185623e+000
  +4.97666185940e+000
  +4.97666185921e+000
  +4.97666186355e+000
  +4.97666186605e+000
  +4.97666186236e+000
  +4.97666185844e+000
  +4.97666185689e+000
  +4.97666185713e+000
  +4.97666184845e+000
  +4.97666185471e+000
  +4.97666185792e+000
  +4.97666185414e+000
</dep>
<dep Uref.Vt time>
  +3.00088869455e+000
  +3.00088869455e+000
  +3.00088869455e+000
  +3.00088869455e+000
  +3.00088869455e+000
  +3.00088869455e+000
  +3.00088869455e+000
  +3.00088869455e+000
  +3.00088869455e+000
  +3.00088869455e+000
  +3.00088869455e+000
  +3.00088869455e+000
  +3.00088869455e+000
  +3.00088869455e+000
  +3.00088869455e+000
  +3.00088869455e+000
  +3.00088869455e+000
  +3.00088869455e+000
  +3.00088869455e+000
  +3.00088869455e+000
  +3.00088869455e+000
  +3.00088869455e+000
  +3.00088869455e+000
  +3.00088869455e+000
  +3.00088869455e+000
  +3.00088869455e+000
  +3.00088869455e+000
  +3.00088869455e+000
  +3.00088869455e+000
  +3.00088869455e+000
  +3.00088869455e+000
  +3.00088869455e+000
  +3.00088869455e+000
  +3.00088869455e+000
  +3.00088869455e+000
  +3.00088869455e+000
  +3.00088869455e+000
  +3.00088869455e+000
  +3.00088869455e+000
  +3.00088869455e+000
  +3.00088869455e+000
  +3.00088869455e+000
  +3.00088869455e+000
  +3.00088869455e+000
  +3.00088869455e+000
  +3.00088869455e+000
  +3.00088869455e+000
  +3.00088869455e+000
  +3.00088869455e+000
  +3.00088869455e+000
  +3.00088869455e+000
  +3.00088869455e+000
  +3.00088869455e+000
  +3.00088869455e+000
  +3.00088869455e+000
  +3.00088869455e+000
  +3.00088869455e+000
  +3.00088869455e+000
  +3.00088869455e+000
  +3.00088869455e+000
  +3.00088869455e+000
  +3.00088869455e+000
  +3.00088869455e+000
  +3.00088869455e+000
  +3.00088869455e+000
  +3.00088869455e+000
  +3.00088869455e+000
  +3.00088869455e+000
  +3.00088869455e+000
  +3.00088869455e+000
  +3.00088869455e+000
  +3.00088869455e+000
  +3.00088869455e+000
  +3.00088869455e+000
  +3.00088869455e+000
  +3.00088869455e+000
  +3.00088869455e+000
  +3.00088869455e+000
  +3.00088869455e+000
  +3.00088869455e+000
  +3.00088869455e+000
  +3.00088869455e+000
  +3.00088869455e+000
  +3.00088869455e+000
  +3.00088869455e+000
  +3.00088869455e+000
  +3.00088869455e+000
  +3.00088869455e+000
  +3.00088869455e+000
  +3.00088869455e+000
  +3.00088869455e+000
  +3.00088869455e+000
  +3.00088869455e+000
  +3.00088869455e+000
  +3.00088869455e+000
  +3.00088869455e+000
  +3.00088869455e+000
  +3.00088869455e+000
  +3.00088869455e+000
  +3.00088869455e+000
</dep>
<dep Uin.Vt time>
  +9.00000000000e+000
  +9.00000000000e+000
  +9.00000000000e+000
  +9.00000000000e+000
  +9.00000000000e+000
  +9.00000000000e+000
  +9.00000000000e+000
  +9.00000000000e+000
  +9.00000000000e+000
  +9.00000000000e+000
  +9.00000000000e+000
  +9.00000000000e+000
  +9.00000000000e+000
  +9.00000000000e+000
  +9.00000000000e+000
  +9.00000000000e+000
  +9.00000000000e+000
  +9.00000000000e+000
  +9.00000000000e+000
  +9.00000000000e+000
  +9.00000000000e+000
  +9.00000000000e+000
  +9.00000000000e+000
  +9.00000000000e+000
  +9.00000000000e+000
  +9.00000000000e+000
  +9.00000000000e+000
  +9.00000000000e+000
  +9.00000000000e+000
  +9.00000000000e+000
  +9.00000000000e+000
  +9.00000000000e+000
  +9.00000000000e+000
  +9.00000000000e+000
  +9.00000000000e+000
  +9.00000000000e+000
  +9.00000000000e+000
  +9.00000000000e+000
  +9.00000000000e+000
  +9.00000000000e+000
  +9.00000000000e+000
  +9.00000000000e+000
  +9.00000000000e+000
  +9.00000000000e+000
  +9.00000000000e+000
  +9.00000000000e+000
  +9.00000000000e+000
  +9.00000000000e+000
  +9.00000000000e+000
  +9.00000000000e+000
  +9.00000000000e+000
  +9.00000000000e+000
  +9.00000000000e+000
  +9.00000000000e+000
  +9.00000000000e+000
  +9.00000000000e+000
  +9.00000000000e+000
  +9.00000000000e+000
  +9.00000000000e+000
  +9.00000000000e+000
  +9.00000000000e+000
  +9.00000000000e+000
  +9.00000000000e+000
  +9.00000000000e+000
  +9.00000000000e+000
  +9.00000000000e+000
  +9.00000000000e+000
  +9.00000000000e+000
  +9.00000000000e+000
  +9.00000000000e+000
  +9.00000000000e+000
  +9.00000000000e+000
  +9.00000000000e+000
  +9.00000000000e+000
  +9.00000000000e+000
  +9.00000000000e+000
  +9.00000000000e+000
  +9.00000000000e+000
  +9.00000000000e+000
  +9.00000000000e+000
  +9.00000000000e+000
  +9.00000000000e+000
  +9.00000000000e+000
  +9.00000000000e+000
  +9.00000000000e+000
  +9.00000000000e+000
  +9.00000000000e+000
  +9.00000000000e+000
  +9.00000000000e+000
  +9.00000000000e+000
  +9.00000000000e+000
  +9.00000000000e+000
  +9.00000000000e+000
  +9.00000000000e+000
  +9.00000000000e+000
  +9.00000000000e+000
  +9.00000000000e+000
  +9.00000000000e+000
  +9.00000000000e+000
  +9.00000000000e+000
</dep>
<dep Vreg.Vt time>
  +5.00148115758e+000
  +5.00148115758e+000
  +5.00148115758e+000
  +5.00148115758e+000
  +5.00148115758e+000
  +5.00148115758e+000
  +5.00148115758e+000
  +5.00148115758e+000
  +5.00148115758e+000
  +5.00148115758e+000
  +5.00148115758e+000
  +5.00148115758e+000
  +5.00148115758e+000
  +5.00148115758e+000
  +5.00148115758e+000
  +5.00148115758e+000
  +5.00148115758e+000
  +5.00148115758e+000
  +5.00148115758e+000
  +5.00148115758e+000
  +5.00148115758e+000
  +5.00148115758e+000
  +5.00148115758e+000
  +5.00148115758e+000
  +5.00148115758e+000
  +5.00148115758e+000
  +5.00148115758e+000
  +5.00148115758e+000
  +5.00148115758e+000
  +5.00148115758e+000
  +5.00148115758e+000
  +5.00148115758e+000
  +5.00148115758e+000
  +5.00148115758e+000
  +5.00148115758e+000
  +5.00148115758e+000
  +5.00148115758e+000
  +5.00148115758e+000
  +5.00148115758e+000
  +5.00148115758e+000
  +5.00148115758e+000
  +5.00148115758e+000
  +5.00148115758e+000
  +5.00148115758e+000
  +5.00148115758e+000
  +5.00148115758e+000
  +5.00148115758e+000
  +5.00148115758e+000
  +5.00148115758e+000
  +5.00148115758e+000
  +5.00148115758e+000
  +5.00148115758e+000
  +5.00148115758e+000
  +5.00148115758e+000
  +5.00148115758e+000
  +5.00148115758e+000
  +5.00148115758e+000
  +5.00148115758e+000
  +5.00148115758e+000
  +5.00148115758e+000
  +5.00148115758e+000
  +5.00148115758e+000
  +5.00148115758e+000
  +5.00148115758e+000
  +5.00148115758e+000
  +5.00148115758e+000
  +5.00148115758e+000
  +5.00148115758e+000
  +5.00148115758e+000
  +5.00148115758e+000
  +5.00148115758e+000
  +5.00148115758e+000
  +5.00148115758e+000
  +5.00148115758e+000
  +5.00148115758e+000
  +5.00148115758e+000
  +5.00148115758e+000
  +5.00148115758e+000
  +5.00148115758e+000
  +5.00148115758e+000
  +5.00148115758e+000
  +5.00148115758e+000
  +5.00148115758e+000
  +5.00148115758e+000
  +5.00148115758e+000
  +5.00148115758e+000
  +5.00148115758e+000
  +5.00148115758e+000
  +5.00148115758e+000
  +5.00148115758e+000
  +5.00148115758e+000
  +5.00148115758e+000
  +5.00148115758e+000
  +5.00148115758e+000
  +5.00148115758e+000
  +5.00148115758e+000
  +5.00148115758e+000
  +5.00148115758e+000
  +5.00148115758e+000
  +5.00148115758e+000
</dep>
