<Qucs Dataset 0.0.17>
<indep time 100>
  +0.00000000000e+000
  +2.52525252525e-003
  +5.05050505051e-003
  +7.57575757576e-003
  +1.01010101010e-002
  +1.26262626263e-002
  +1.51515151515e-002
  +1.76767676768e-002
  +2.02020202020e-002
  +2.27272727273e-002
  +2.52525252525e-002
  +2.77777777778e-002
  +3.03030303030e-002
  +3.28282828283e-002
  +3.53535353535e-002
  +3.78787878788e-002
  +4.04040404040e-002
  +4.29292929293e-002
  +4.54545454545e-002
  +4.79797979798e-002
  +5.05050505051e-002
  +5.30303030303e-002
  +5.55555555556e-002
  +5.80808080808e-002
  +6.06060606061e-002
  +6.31313131313e-002
  +6.56565656566e-002
  +6.81818181818e-002
  +7.07070707071e-002
  +7.32323232323e-002
  +7.57575757576e-002
  +7.82828282828e-002
  +8.08080808081e-002
  +8.33333333333e-002
  +8.58585858586e-002
  +8.83838383838e-002
  +9.09090909091e-002
  +9.34343434343e-002
  +9.59595959596e-002
  +9.84848484848e-002
  +1.01010101010e-001
  +1.03535353535e-001
  +1.06060606061e-001
  +1.08585858586e-001
  +1.11111111111e-001
  +1.13636363636e-001
  +1.16161616162e-001
  +1.18686868687e-001
  +1.21212121212e-001
  +1.23737373737e-001
  +1.26262626263e-001
  +1.28787878788e-001
  +1.31313131313e-001
  +1.33838383838e-001
  +1.36363636364e-001
  +1.38888888889e-001
  +1.41414141414e-001
  +1.43939393939e-001
  +1.46464646465e-001
  +1.48989898990e-001
  +1.51515151515e-001
  +1.54040404040e-001
  +1.56565656566e-001
  +1.59090909091e-001
  +1.61616161616e-001
  +1.64141414141e-001
  +1.66666666667e-001
  +1.69191919192e-001
  +1.71717171717e-001
  +1.74242424242e-001
  +1.76767676768e-001
  +1.79292929293e-001
  +1.81818181818e-001
  +1.84343434343e-001
  +1.86868686869e-001
  +1.89393939394e-001
  +1.91919191919e-001
  +1.94444444444e-001
  +1.96969696970e-001
  +1.99494949495e-001
  +2.02020202020e-001
  +2.04545454545e-001
  +2.07070707071e-001
  +2.09595959596e-001
  +2.12121212121e-001
  +2.14646464646e-001
  +2.17171717172e-001
  +2.19696969697e-001
  +2.22222222222e-001
  +2.24747474747e-001
  +2.27272727273e-001
  +2.29797979798e-001
  +2.32323232323e-001
  +2.34848484848e-001
  +2.37373737374e-001
  +2.39898989899e-001
  +2.42424242424e-001
  +2.44949494949e-001
  +2.47474747475e-001
  +2.50000000000e-001
</indep>
<dep V3.It time>
  +1.99196904230e-015
  -7.61609897350e-006
  -1.52300821198e-005
  -2.28397536371e-005
  -3.04441405077e-005
  -3.80405502976e-005
  -4.56272374266e-005
  -5.32028999270e-005
  -6.07647021249e-005
  -6.83115096334e-005
  -7.58557171778e-005
  -8.63858261002e-005
  -1.62090604088e-004
  -3.00075678520e-004
  -4.52347826482e-004
  -6.09427396865e-004
  -7.68589702043e-004
  -9.28768655822e-004
  -1.09010195901e-003
  -1.25955906369e-003
  -1.42157515204e-003
  -1.58486444432e-003
  -1.75087184183e-003
  -1.91904796656e-003
  -2.08857355949e-003
  -2.25880723564e-003
  -2.42919031310e-003
  -2.59854003617e-003
  -2.76330991115e-003
  -2.92194310961e-003
  -3.07189969247e-003
  -3.22066460226e-003
  -3.36836223059e-003
  -3.51494070861e-003
  -3.66032262599e-003
  -3.80448946722e-003
  -3.94739629914e-003
  -4.08897048568e-003
  -4.22920390273e-003
  -4.41682962762e-003
  -4.55823357398e-003
  -4.69835746950e-003
  -4.83726545247e-003
  -4.97486673523e-003
  -5.11116512774e-003
  -5.24640421075e-003
  -5.38112939670e-003
  -5.51620730061e-003
  -5.65285071996e-003
  -5.79232326378e-003
  -5.93488669861e-003
  -6.07982017744e-003
  -6.22783158675e-003
  -6.37394520851e-003
  -6.50851300148e-003
  -6.60666399832e-003
  -6.63893513403e-003
  -6.64985466546e-003
  -6.65550344592e-003
  -6.66072955385e-003
  -6.66581771008e-003
  -6.67100116232e-003
  -6.67679438996e-003
  -6.68294897834e-003
  -6.35277577219e-003
  -6.36196467120e-003
  -6.37124326717e-003
  -6.38056199608e-003
  -6.38987098504e-003
  -6.39913696846e-003
  -6.40831304723e-003
  -6.41737570113e-003
  -6.42629708968e-003
  -6.43504445052e-003
  -6.44360657850e-003
  -6.45195294201e-003
  -6.46007650842e-003
  -6.46795030213e-003
  -6.47557033645e-003
  -6.48291226862e-003
  -6.48997440282e-003
  -6.49673441313e-003
  -6.50319239345e-003
  -6.50932762856e-003
  -6.51514167577e-003
  -6.52061517063e-003
  -6.52575092956e-003
  -6.53053078146e-003
  -6.53495868339e-003
  -6.53901757153e-003
  -6.54271248508e-003
  -6.54602743135e-003
  -6.54896851367e-003
  -6.55152080686e-003
  -6.55369148514e-003
  -6.55546670480e-003
  -6.55685472947e-003
  -6.55784281739e-003
  -6.55844034177e-003
  -6.55863568069e-003
</dep>
<dep Out.Vt time>
  -4.99955674419e-013
  +2.58402931099e-003
  +5.04235585691e-003
  +7.38175949698e-003
  +9.55197244888e-003
  +1.09852494950e-002
  +1.25496137056e-002
  +1.82585489673e-002
  +2.45785265128e-002
  +3.02651487641e-002
  +3.51177795468e-002
  +3.97097741938e-002
  +5.98742577398e-002
  +9.64792615911e-002
  +1.35837138424e-001
  +1.75523815993e-001
  +2.13062728381e-001
  +2.36162522656e-001
  +2.68303399264e-001
  +4.00822439191e-001
  +1.05726105838e+000
  +1.18924753969e+000
  +1.32031173961e+000
  +1.45078542883e+000
  +1.58062565281e+000
  +1.70976950709e+000
  +1.83815729286e+000
  +1.96573369627e+000
  +2.09244721211e+000
  +2.21824808640e+000
  +2.34309078890e+000
  +2.46692983371e+000
  +2.58972143380e+000
  +2.71142274560e+000
  +2.83199156057e+000
  +2.95138594442e+000
  +3.06956404002e+000
  +3.18648379118e+000
  +3.30210273469e+000
  +1.05879962101e+000
  +1.04401505002e+000
  +1.05022182093e+000
  +1.06167237724e+000
  +1.07576892713e+000
  +1.09099880098e+000
  +1.10650798274e+000
  +1.12191033335e+000
  +1.13700383751e+000
  +1.15163423417e+000
  +1.16563144993e+000
  +1.17880548033e+000
  +1.19095299289e+000
  +1.20188309458e+000
  +1.21141877100e+000
  +1.21926944300e+000
  +1.22447915492e+000
  +1.22583804495e+000
  +1.22593450640e+000
  +1.22603375628e+000
  +1.22635021888e+000
  +1.22746591839e+000
  +1.23147108324e+000
  +1.24249163354e+000
  +1.27596237284e+000
  +4.99450768343e+000
  +4.99398219552e+000
  +4.99347302550e+000
  +4.99297966159e+000
  +4.99250151728e+000
  +4.99203800482e+000
  +4.99158860111e+000
  +4.99115278273e+000
  +4.99073005681e+000
  +4.99031996856e+000
  +4.98992206679e+000
  +4.98953593841e+000
  +4.98916116950e+000
  +4.98879740250e+000
  +4.98844424839e+000
  +4.98810137519e+000
  +4.98776843804e+000
  +4.98744512296e+000
  +4.98713110878e+000
  +4.98682611828e+000
  +4.98652984866e+000
  +4.98624204114e+000
  +4.98596241805e+000
  +4.98569074769e+000
  +4.98542676457e+000
  +4.98517025013e+000
  +4.98492095658e+000
  +4.98467868779e+000
  +4.98444321588e+000
  +4.98421435065e+000
  +4.98399187635e+000
  +4.98377561235e+000
  +4.98356535931e+000
  +4.98336095357e+000
  +4.98316220707e+000
  +4.98296896389e+000
</dep>
<dep Ureg.Vt time>
  -9.99911899464e-013
  +1.51722461541e-005
  +2.94477046519e-005
  +4.37158198012e-005
  +5.79729332197e-005
  +7.22154940443e-005
  +8.64399191709e-005
  +1.00642613320e-004
  +1.14820230174e-004
  +1.29012601450e-004
  +1.53576479134e-004
  +2.39076982885e-003
  +5.82922386573e-002
  +1.69996545896e-001
  +2.94640717101e-001
  +4.23583431080e-001
  +5.54389528051e-001
  +6.86048605509e-001
  +8.18037877904e-001
  +9.50045890888e-001
  +1.08187215016e+000
  +1.21335026872e+000
  +1.34437307236e+000
  +1.47484811187e+000
  +1.60469711355e+000
  +1.73385188808e+000
  +1.86225142084e+000
  +1.98983993638e+000
  +2.11656556539e+000
  +2.24237930281e+000
  +2.36723446633e+000
  +2.49108597864e+000
  +2.61389006399e+000
  +2.73560386547e+000
  +2.85618513946e+000
  +2.97559196653e+000
  +3.09378247770e+000
  +3.21071455899e+000
  +3.32634551217e+000
  +3.44063132798e+000
  +3.55352752708e+000
  +3.66498655959e+000
  +3.77495823662e+000
  +3.88338824174e+000
  +3.99021645072e+000
  +4.09537446450e+000
  +4.19878184028e+000
  +4.30034010847e+000
  +4.39992280116e+000
  +4.49735786105e+000
  +4.59239427077e+000
  +4.68463263306e+000
  +4.77336194200e+000
  +4.85710554204e+000
  +4.93203012677e+000
  +4.98550926886e+000
  +4.99998405520e+000
  +5.00076461266e+000
  +5.00080122435e+000
  +5.00081339516e+000
  +5.00082458882e+000
  +5.00083559666e+000
  +5.00084644643e+000
  +5.00085713903e+000
  +5.00087002278e+000
  +5.00088036458e+000
  +5.00089053438e+000
  +5.00090052922e+000
  +5.00091034647e+000
  +5.00091998353e+000
  +5.00092943807e+000
  +5.00093870763e+000
  +5.00094778987e+000
  +5.00095668255e+000
  +5.00096538334e+000
  +5.00097389011e+000
  +5.00098220058e+000
  +5.00099031272e+000
  +5.00099822436e+000
  +5.00100593352e+000
  +5.00101343814e+000
  +5.00102073635e+000
  +5.00102782616e+000
  +5.00103470580e+000
  +5.00104137340e+000
  +5.00104782726e+000
  +5.00105406562e+000
  +5.00106008690e+000
  +5.00106588942e+000
  +5.00107147173e+000
  +5.00107683225e+000
  +5.00108196960e+000
  +5.00108688235e+000
  +5.00109156922e+000
  +5.00109602886e+000
  +5.00110026013e+000
  +5.00110426178e+000
  +5.00110803277e+000
  +5.00111157197e+000
  +5.00111487845e+000
</dep>
<dep In.Vt time>
  +7.58811900260e-018
  +9.51949054122e-002
  +1.90366699737e-001
  +2.85490556405e-001
  +3.80542349794e-001
  +4.75497090567e-001
  +5.70332913094e-001
  +6.65024964349e-001
  +7.59550429514e-001
  +8.53884819634e-001
  +9.48004244312e-001
  +1.04188519038e+000
  +1.13550578678e+000
  +1.22883927875e+000
  +1.32186273742e+000
  +1.41455323464e+000
  +1.50688732426e+000
  +1.59883966798e+000
  +1.69035085229e+000
  +1.78084727394e+000
  +1.86860324370e+000
  +1.94588901997e+000
  +2.00826215810e+000
  +2.05884161113e+000
  +2.10122268727e+000
  +2.13794353038e+000
  +2.17040385683e+000
  +2.19803738285e+000
  +2.22123968905e+000
  +2.31658463066e+000
  +2.43445903578e+000
  +2.55191047005e+000
  +2.66843077819e+000
  +2.78380224966e+000
  +2.89781351312e+000
  +3.01023293746e+000
  +3.12077446786e+000
  +3.22904907484e+000
  +3.33448328558e+000
  +3.43621557676e+000
  +3.53276888086e+000
  +3.62250419089e+000
  +3.70492222178e+000
  +3.78203496218e+000
  +3.85632339685e+000
  +3.92903045058e+000
  +4.00056498287e+000
  +4.07103652093e+000
  +4.14046508548e+000
  +4.20884496366e+000
  +4.27616277245e+000
  +4.34240301704e+000
  +4.40754956711e+000
  +4.47158625033e+000
  +4.53449699563e+000
  +4.59626576078e+000
  +4.65687660264e+000
  +4.71631239135e+000
  +4.77454652537e+000
  +4.83148651272e+000
  +4.88654705899e+000
  +4.93634026082e+000
  +4.97290872529e+000
  +4.99562400567e+000
  +5.01044404562e+000
  +5.02119951192e+000
  +5.02961297369e+000
  +5.03654475235e+000
  +5.04246342303e+000
  +5.04764710799e+000
  +5.05227239911e+000
  +5.05645750340e+000
  +5.06028488080e+000
  +5.06381397052e+000
  +5.06708876827e+000
  +5.07014249468e+000
  +5.07300066843e+000
  +5.07568310380e+000
  +5.07820534584e+000
  +5.08057962209e+000
  +5.08281559558e+000
  +5.08492085379e+000
  +5.08690134757e+000
  +5.08876165638e+000
  +5.09050527188e+000
  +5.09213474768e+000
  +5.09365190280e+000
  +5.09505790860e+000
  +5.09635344965e+000
  +5.09753877508e+000
  +5.09861383567e+000
  +5.09957831338e+000
  +5.10043174381e+000
  +5.10117352962e+000
  +5.10180305176e+000
  +5.10231966840e+000
  +5.10272281411e+000
  +5.10301198391e+000
  +5.10318681825e+000
  +5.10324707010e+000
</dep>
<dep Ubat.Vt time>
  +0.00000000000e+000
  +1.42793674513e-001
  +2.85551401483e-001
  +4.28237242414e-001
  +5.70815276909e-001
  +7.13249611711e-001
  +8.55504389738e-001
  +9.97543799109e-001
  +1.13933208216e+000
  +1.28083354446e+000
  +1.42201256376e+000
  +1.56283359900e+000
  +1.70326119924e+000
  +1.84326001259e+000
  +1.98279479508e+000
  +2.12183041958e+000
  +2.26033188463e+000
  +2.39826432321e+000
  +2.53559301157e+000
  +2.67228337795e+000
  +2.80830101129e+000
  +2.94361166986e+000
  +3.07818128993e+000
  +3.21197599433e+000
  +3.34496210094e+000
  +3.47710613124e+000
  +3.60837481866e+000
  +3.73873511702e+000
  +3.86815420880e+000
  +3.99659951345e+000
  +4.12403869555e+000
  +4.25043967295e+000
  +4.37577062490e+000
  +4.50000000000e+000
  +4.62309652416e+000
  +4.74502920849e+000
  +4.86576735710e+000
  +4.98528057479e+000
  +5.10353877476e+000
  +5.22051218614e+000
  +5.33617136149e+000
  +5.45048718424e+000
  +5.56343087599e+000
  +5.67497400376e+000
  +5.78508848718e+000
  +5.89374660551e+000
  +6.00092100465e+000
  +6.10658470401e+000
  +6.21071110334e+000
  +6.31327398936e+000
  +6.41424754241e+000
  +6.51360634295e+000
  +6.61132537792e+000
  +6.70738004708e+000
  +6.80174616919e+000
  +6.89439998807e+000
  +6.98531817863e+000
  +7.07447785269e+000
  +7.16185656478e+000
  +7.24743231778e+000
  +7.33118356845e+000
  +7.41308923287e+000
  +7.49312869171e+000
  +7.57128179548e+000
  +7.64752886955e+000
  +7.72185071911e+000
  +7.79422863406e+000
  +7.86464439363e+000
  +7.93308027103e+000
  +7.99951903789e+000
  +8.06394396862e+000
  +8.12633884458e+000
  +8.18668795819e+000
  +8.24497611689e+000
  +8.30118864694e+000
  +8.35531139714e+000
  +8.40733074239e+000
  +8.45723358707e+000
  +8.50500736843e+000
  +8.55064005967e+000
  +8.59412017300e+000
  +8.63543676253e+000
  +8.67457942704e+000
  +8.71153831257e+000
  +8.74630411491e+000
  +8.77886808197e+000
  +8.80922201593e+000
  +8.83735827536e+000
  +8.86326977711e+000
  +8.88694999809e+000
  +8.90839297693e+000
  +8.92759331548e+000
  +8.94454618015e+000
  +8.95924730316e+000
  +8.97169298357e+000
  +8.98188008825e+000
  +8.98980605265e+000
  +8.99546888145e+000
  +8.99886714906e+000
  +9.00000000000e+000
</dep>
