<Qucs Dataset 0.0.17>
<indep time 100>
  +0.00000000000e+000
  +2.52525252525e-003
  +5.05050505051e-003
  +7.57575757576e-003
  +1.01010101010e-002
  +1.26262626263e-002
  +1.51515151515e-002
  +1.76767676768e-002
  +2.02020202020e-002
  +2.27272727273e-002
  +2.52525252525e-002
  +2.77777777778e-002
  +3.03030303030e-002
  +3.28282828283e-002
  +3.53535353535e-002
  +3.78787878788e-002
  +4.04040404040e-002
  +4.29292929293e-002
  +4.54545454545e-002
  +4.79797979798e-002
  +5.05050505051e-002
  +5.30303030303e-002
  +5.55555555556e-002
  +5.80808080808e-002
  +6.06060606061e-002
  +6.31313131313e-002
  +6.56565656566e-002
  +6.81818181818e-002
  +7.07070707071e-002
  +7.32323232323e-002
  +7.57575757576e-002
  +7.82828282828e-002
  +8.08080808081e-002
  +8.33333333333e-002
  +8.58585858586e-002
  +8.83838383838e-002
  +9.09090909091e-002
  +9.34343434343e-002
  +9.59595959596e-002
  +9.84848484848e-002
  +1.01010101010e-001
  +1.03535353535e-001
  +1.06060606061e-001
  +1.08585858586e-001
  +1.11111111111e-001
  +1.13636363636e-001
  +1.16161616162e-001
  +1.18686868687e-001
  +1.21212121212e-001
  +1.23737373737e-001
  +1.26262626263e-001
  +1.28787878788e-001
  +1.31313131313e-001
  +1.33838383838e-001
  +1.36363636364e-001
  +1.38888888889e-001
  +1.41414141414e-001
  +1.43939393939e-001
  +1.46464646465e-001
  +1.48989898990e-001
  +1.51515151515e-001
  +1.54040404040e-001
  +1.56565656566e-001
  +1.59090909091e-001
  +1.61616161616e-001
  +1.64141414141e-001
  +1.66666666667e-001
  +1.69191919192e-001
  +1.71717171717e-001
  +1.74242424242e-001
  +1.76767676768e-001
  +1.79292929293e-001
  +1.81818181818e-001
  +1.84343434343e-001
  +1.86868686869e-001
  +1.89393939394e-001
  +1.91919191919e-001
  +1.94444444444e-001
  +1.96969696970e-001
  +1.99494949495e-001
  +2.02020202020e-001
  +2.04545454545e-001
  +2.07070707071e-001
  +2.09595959596e-001
  +2.12121212121e-001
  +2.14646464646e-001
  +2.17171717172e-001
  +2.19696969697e-001
  +2.22222222222e-001
  +2.24747474747e-001
  +2.27272727273e-001
  +2.29797979798e-001
  +2.32323232323e-001
  +2.34848484848e-001
  +2.37373737374e-001
  +2.39898989899e-001
  +2.42424242424e-001
  +2.44949494949e-001
  +2.47474747475e-001
  +2.50000000000e-001
</indep>
<dep V3.It time>
  +1.94786382460e-014
  -9.99600589939e-006
  -1.99892850517e-005
  -2.99770553619e-005
  -3.99577557152e-005
  -4.99279205732e-005
  -5.98857544727e-005
  -6.98287503605e-005
  -7.97536918286e-005
  -8.96590922486e-005
  -9.95558644894e-005
  -1.12432744886e-004
  -1.90478532591e-004
  -3.30788578323e-004
  -4.85392480277e-004
  -6.44799508256e-004
  -8.06257525991e-004
  -9.68644204472e-004
  -1.13135718722e-003
  -1.29405723444e-003
  -1.45666582879e-003
  -1.62003299687e-003
  -1.78491874949e-003
  -1.95033647597e-003
  -2.11551156546e-003
  -2.28008470651e-003
  -2.44386030404e-003
  -2.60670970995e-003
  -2.76853229507e-003
  -2.92924580525e-003
  -3.08877895540e-003
  -3.24706428477e-003
  -3.40404018544e-003
  -3.55964885716e-003
  -3.71383273548e-003
  -3.86653987381e-003
  -4.01795875081e-003
  -4.17591778712e-003
  -4.33265655870e-003
  -4.47957866096e-003
  -4.62450311852e-003
  -4.76769001179e-003
  -4.90916710682e-003
  -5.04918967544e-003
  -5.18799170038e-003
  -5.32640992006e-003
  -5.46635884092e-003
  -5.60843410040e-003
  -5.74810099578e-003
  -5.89038037104e-003
  -6.03656095142e-003
  -6.18646686199e-003
  -6.28589023827e-003
  -6.23180585684e-003
  -6.32873090296e-003
  -6.39835784358e-003
  -6.42111363195e-003
  -6.42836649245e-003
  -6.43461072069e-003
  -6.44064915828e-003
  -6.44653233219e-003
  -6.45229098911e-003
  -6.45790838397e-003
  -6.46338516405e-003
  -6.46874090017e-003
  -6.47395458399e-003
  -6.47902509199e-003
  -6.48397123171e-003
  -6.48877179789e-003
  -6.49342561282e-003
  -6.49795145997e-003
  -6.50232826317e-003
  -6.50655493525e-003
  -6.51065030199e-003
  -6.51459344896e-003
  -6.51838339639e-003
  -6.52203902186e-003
  -6.52553957868e-003
  -6.52888419839e-003
  -6.53209181335e-003
  -6.53514184702e-003
  -6.53803354439e-003
  -6.54078589459e-003
  -6.54337849305e-003
  -6.54581069993e-003
  -6.54810156285e-003
  -6.55023085069e-003
  -6.55219804028e-003
  -6.55402223919e-003
  -6.55568339097e-003
  -6.55718109033e-003
  -6.55853450599e-003
  -6.55972375716e-003
  -6.56074855737e-003
  -6.56162813739e-003
  -6.56234279281e-003
  -6.56289235668e-003
  -6.56329612243e-003
  -6.56353456250e-003
  -6.56360762985e-003
</dep>
<dep V4.It time>
  -3.52344346376e-014
  +1.67889558354e-011
  +1.68513002283e-011
  +1.68272531028e-011
  +1.68821306993e-011
  +1.68515720726e-011
  +1.68589878528e-011
  +1.69049089437e-011
  +1.68655121814e-011
  +1.69060872176e-011
  +1.69043492262e-011
  +2.49131163292e-011
  +8.55308581662e-011
  +1.00431559827e-010
  +1.02760596325e-010
  +1.01216363454e-010
  +7.88694237813e-011
  -1.93752789815e-011
  -1.22811480234e-010
  -1.13116327484e-009
  -2.43792521285e-006
  -1.57047789835e-005
  -3.96021370313e-005
  -6.18773701715e-005
  -8.01483265282e-005
  -9.52013999080e-005
  -1.07882024427e-004
  -1.18791831596e-004
  -1.28343226223e-004
  -1.36823697615e-004
  -1.44439683559e-004
  -1.51343642632e-004
  -1.57650962558e-004
  -1.63450886365e-004
  -1.68813560436e-004
  -1.73769563663e-004
  -1.75821925191e-004
  -9.17515396556e-005
  -3.03670311110e-006
  -9.64642583093e-008
  -6.04175689034e-008
  -6.08826268116e-008
  -6.17536980437e-008
  -6.25700567373e-008
  -6.33288804732e-008
  -6.40115119403e-008
  -6.45679931253e-008
  -6.48650461137e-008
  -6.45253964404e-008
  -6.26704966053e-008
  -5.75700879667e-008
  -4.71781043859e-008
  -3.22134411630e-008
  -1.79855380074e-008
  -8.56710191452e-009
  -3.74257603564e-009
  -1.56289094547e-009
  -7.28087914711e-010
  -2.15823117074e-010
  -4.45969384342e-011
  -8.14257151339e-011
  +6.03896178056e-011
  +7.38895159638e-011
  -3.07250545820e-011
  +8.16627527196e-011
  +8.23957102407e-011
  -2.76346389489e-011
  +8.25787366042e-011
  +8.24795353988e-011
  -2.79531942047e-011
  +8.18713213896e-011
  +8.13225126769e-011
  -2.95779351979e-011
  +7.98131406431e-011
  +7.89193517413e-011
  -3.22289941113e-011
  +7.69884911277e-011
  +7.59897441649e-011
  -3.52128454305e-011
  +7.39748059874e-011
  +7.29711665676e-011
  -3.82191477896e-011
  +7.09815716154e-011
  +6.99991276110e-011
  -4.11641897219e-011
  +6.80571380806e-011
  +6.70984512355e-011
  -4.40385833691e-011
  +6.52008818151e-011
  +6.42621291186e-011
  -4.68532998724e-011
  +6.23994038653e-011
  +6.14754120917e-011
  -4.96237614150e-011
  +5.96370215713e-011
  +5.87225655639e-011
  -5.23655883542e-011
  +5.68982515499e-011
  +5.59883219608e-011
  -5.50938585079e-011
</dep>
<dep Out.Vt time>
  +1.29154220990e-006
  +1.16458387808e-003
  +2.25241016803e-003
  +3.26919025316e-003
  +4.21872257866e-003
  +5.10448900885e-003
  +5.92963822075e-003
  +6.69718525455e-003
  +7.40986288606e-003
  +8.07021414431e-003
  +8.68337537513e-003
  +9.81954578570e-003
  +2.48279757531e-002
  +5.40320159159e-002
  +8.59848728908e-002
  +1.18356310220e-001
  +1.48936180851e-001
  +1.67298938529e-001
  +1.89292003100e-001
  +4.48001181340e-001
  +1.39284165490e-001
  +6.44590398298e-001
  +7.02366416369e-001
  +7.30631787954e-001
  +7.54147971074e-001
  +7.75885540078e-001
  +7.96852081728e-001
  +8.17454752685e-001
  +8.37681126287e-001
  +8.57320602268e-001
  +8.76442076010e-001
  +8.95234936121e-001
  +9.13770841666e-001
  +9.32077491461e-001
  +9.50169962654e-001
  +9.68052384820e-001
  +9.85336237901e-001
  +9.87369821455e-001
  +9.90312805673e-001
  +1.01016813816e+000
  +1.02758959642e+000
  +1.04471807354e+000
  +1.06158643472e+000
  +1.07818756804e+000
  +1.09450839882e+000
  +1.11052695871e+000
  +1.12621074298e+000
  +1.14154395277e+000
  +1.15659592628e+000
  +1.17158231486e+000
  +1.18754171152e+000
  +1.20938320047e+000
  +4.03648856564e+000
  +4.85084726732e+000
  +4.92523366118e+000
  +4.97819124317e+000
  +4.99216025510e+000
  +4.99245003169e+000
  +4.99201070414e+000
  +4.99156133550e+000
  +4.99112486693e+000
  +4.99070155473e+000
  +4.99029101049e+000
  +4.98989277237e+000
  +4.98950639131e+000
  +4.98913149763e+000
  +4.98876770259e+000
  +4.98841460027e+000
  +4.98807187742e+000
  +4.98773918995e+000
  +4.98741618207e+000
  +4.98710257834e+000
  +4.98679807669e+000
  +4.98650235826e+000
  +4.98621518480e+000
  +4.98593628102e+000
  +4.98566536823e+000
  +4.98540223143e+000
  +4.98514662348e+000
  +4.98489828840e+000
  +4.98465703704e+000
  +4.98442265353e+000
  +4.98419490355e+000
  +4.98397361828e+000
  +4.98375859913e+000
  +4.98354962432e+000
  +4.98334655353e+000
  +4.98314921109e+000
  +4.98295738231e+000
  +4.98277094763e+000
  +4.98258973725e+000
  +4.98241356407e+000
  +4.98224231328e+000
  +4.98207583588e+000
  +4.98191396167e+000
  +4.98175658397e+000
  +4.98160356363e+000
  +4.98145474891e+000
  +4.98131003171e+000
  +4.98116930009e+000
</dep>
<dep Uref.Vt time>
  +3.30000000000e+000
  +3.30000000000e+000
  +3.30000000000e+000
  +3.30000000000e+000
  +3.30000000000e+000
  +3.30000000000e+000
  +3.30000000000e+000
  +3.30000000000e+000
  +3.30000000000e+000
  +3.30000000000e+000
  +3.30000000000e+000
  +3.30000000000e+000
  +3.30000000000e+000
  +3.30000000000e+000
  +3.30000000000e+000
  +3.30000000000e+000
  +3.30000000000e+000
  +3.30000000000e+000
  +3.30000000000e+000
  +3.30000000000e+000
  +3.30000000000e+000
  +3.30000000000e+000
  +3.30000000000e+000
  +3.30000000000e+000
  +3.30000000000e+000
  +3.30000000000e+000
  +3.30000000000e+000
  +3.30000000000e+000
  +3.30000000000e+000
  +3.30000000000e+000
  +3.30000000000e+000
  +3.30000000000e+000
  +3.30000000000e+000
  +3.30000000000e+000
  +3.30000000000e+000
  +3.30000000000e+000
  +3.30000000000e+000
  +3.30000000000e+000
  +3.30000000000e+000
  +3.30000000000e+000
  +3.30000000000e+000
  +3.30000000000e+000
  +3.30000000000e+000
  +3.30000000000e+000
  +3.30000000000e+000
  +3.30000000000e+000
  +3.30000000000e+000
  +3.30000000000e+000
  +3.30000000000e+000
  +3.30000000000e+000
  +3.30000000000e+000
  +3.30000000000e+000
  +3.30000000000e+000
  +3.30000000000e+000
  +3.30000000000e+000
  +3.30000000000e+000
  +3.30000000000e+000
  +3.30000000000e+000
  +3.30000000000e+000
  +3.30000000000e+000
  +3.30000000000e+000
  +3.30000000000e+000
  +3.30000000000e+000
  +3.30000000000e+000
  +3.30000000000e+000
  +3.30000000000e+000
  +3.30000000000e+000
  +3.30000000000e+000
  +3.30000000000e+000
  +3.30000000000e+000
  +3.30000000000e+000
  +3.30000000000e+000
  +3.30000000000e+000
  +3.30000000000e+000
  +3.30000000000e+000
  +3.30000000000e+000
  +3.30000000000e+000
  +3.30000000000e+000
  +3.30000000000e+000
  +3.30000000000e+000
  +3.30000000000e+000
  +3.30000000000e+000
  +3.30000000000e+000
  +3.30000000000e+000
  +3.30000000000e+000
  +3.30000000000e+000
  +3.30000000000e+000
  +3.30000000000e+000
  +3.30000000000e+000
  +3.30000000000e+000
  +3.30000000000e+000
  +3.30000000000e+000
  +3.30000000000e+000
  +3.30000000000e+000
  +3.30000000000e+000
  +3.30000000000e+000
  +3.30000000000e+000
  +3.30000000000e+000
  +3.30000000000e+000
  +3.30000000000e+000
</dep>
<dep In.Vt time>
  +2.83021587937e-012
  +7.13965253325e-002
  +1.42775387207e-001
  +2.14118306838e-001
  +2.85407322592e-001
  +3.56624489270e-001
  +4.27751877264e-001
  +4.98771580626e-001
  +5.69665721608e-001
  +6.40416451550e-001
  +7.11005960910e-001
  +7.81416503507e-001
  +8.51630501903e-001
  +9.21629966080e-001
  +9.91397374630e-001
  +1.06091519085e+000
  +1.13016584895e+000
  +1.19913170400e+000
  +1.26779566290e+000
  +1.33613317435e+000
  +1.40414945069e+000
  +1.47180499912e+000
  +1.53908999589e+000
  +1.60598742274e+000
  +1.67248051478e+000
  +1.73855258723e+000
  +1.80418704740e+000
  +1.86936729542e+000
  +1.93407687290e+000
  +1.99829953125e+000
  +2.06201912189e+000
  +2.12521960894e+000
  +2.18788508304e+000
  +2.24999976806e+000
  +2.31154802743e+000
  +2.37251436701e+000
  +2.43288347037e+000
  +2.49264065654e+000
  +2.55176965901e+000
  +2.61025604102e+000
  +2.66808571001e+000
  +2.72524362107e+000
  +2.78171539568e+000
  +2.83748693596e+000
  +2.89254408801e+000
  +2.94687291208e+000
  +3.00045946556e+000
  +3.05328952459e+000
  +3.10534798440e+000
  +3.15661733488e+000
  +3.20707593676e+000
  +3.25670086120e+000
  +3.30548312884e+000
  +3.35343688623e+000
  +3.40057066630e+000
  +3.44687162647e+000
  +3.49231893477e+000
  +3.53689365045e+000
  +3.58058064809e+000
  +3.62336732131e+000
  +3.66524223358e+000
  +3.70619458103e+000
  +3.74621391786e+000
  +3.78529011858e+000
  +3.82341334160e+000
  +3.86057396216e+000
  +3.89676262090e+000
  +3.93197022322e+000
  +3.96618788721e+000
  +3.99940699834e+000
  +4.03161921134e+000
  +4.06281639921e+000
  +4.09299070824e+000
  +4.12213455980e+000
  +4.15024059951e+000
  +4.17730175183e+000
  +4.20331122187e+000
  +4.22826244434e+000
  +4.25214913792e+000
  +4.27496530684e+000
  +4.29670518971e+000
  +4.31736331367e+000
  +4.33693449569e+000
  +4.35541379132e+000
  +4.37279654851e+000
  +4.38907840876e+000
  +4.40425525572e+000
  +4.41832326870e+000
  +4.43127892365e+000
  +4.44311894159e+000
  +4.45384034187e+000
  +4.46344044287e+000
  +4.47191681038e+000
  +4.47926731054e+000
  +4.48549011031e+000
  +4.49058362572e+000
  +4.49454657451e+000
  +4.49737797641e+000
  +4.49907710124e+000
  +4.49964352127e+000
</dep>
<dep Ubat.Vt time>
  +0.00000000000e+000
  +1.42793674513e-001
  +2.85551401483e-001
  +4.28237242414e-001
  +5.70815276909e-001
  +7.13249611711e-001
  +8.55504389738e-001
  +9.97543799109e-001
  +1.13933208216e+000
  +1.28083354446e+000
  +1.42201256376e+000
  +1.56283359900e+000
  +1.70326119924e+000
  +1.84326001259e+000
  +1.98279479508e+000
  +2.12183041958e+000
  +2.26033188463e+000
  +2.39826432321e+000
  +2.53559301157e+000
  +2.67228337795e+000
  +2.80830101129e+000
  +2.94361166986e+000
  +3.07818128993e+000
  +3.21197599433e+000
  +3.34496210094e+000
  +3.47710613124e+000
  +3.60837481866e+000
  +3.73873511702e+000
  +3.86815420880e+000
  +3.99659951345e+000
  +4.12403869555e+000
  +4.25043967295e+000
  +4.37577062490e+000
  +4.50000000000e+000
  +4.62309652416e+000
  +4.74502920849e+000
  +4.86576735710e+000
  +4.98528057479e+000
  +5.10353877476e+000
  +5.22051218614e+000
  +5.33617136149e+000
  +5.45048718424e+000
  +5.56343087599e+000
  +5.67497400376e+000
  +5.78508848718e+000
  +5.89374660551e+000
  +6.00092100465e+000
  +6.10658470401e+000
  +6.21071110334e+000
  +6.31327398936e+000
  +6.41424754241e+000
  +6.51360634295e+000
  +6.61132537792e+000
  +6.70738004708e+000
  +6.80174616919e+000
  +6.89439998807e+000
  +6.98531817863e+000
  +7.07447785269e+000
  +7.16185656478e+000
  +7.24743231778e+000
  +7.33118356845e+000
  +7.41308923287e+000
  +7.49312869171e+000
  +7.57128179548e+000
  +7.64752886955e+000
  +7.72185071911e+000
  +7.79422863406e+000
  +7.86464439363e+000
  +7.93308027103e+000
  +7.99951903789e+000
  +8.06394396862e+000
  +8.12633884458e+000
  +8.18668795819e+000
  +8.24497611689e+000
  +8.30118864694e+000
  +8.35531139714e+000
  +8.40733074239e+000
  +8.45723358707e+000
  +8.50500736843e+000
  +8.55064005967e+000
  +8.59412017300e+000
  +8.63543676253e+000
  +8.67457942704e+000
  +8.71153831257e+000
  +8.74630411491e+000
  +8.77886808197e+000
  +8.80922201593e+000
  +8.83735827536e+000
  +8.86326977711e+000
  +8.88694999809e+000
  +8.90839297693e+000
  +8.92759331548e+000
  +8.94454618015e+000
  +8.95924730316e+000
  +8.97169298357e+000
  +8.98188008825e+000
  +8.98980605265e+000
  +8.99546888145e+000
  +8.99886714906e+000
  +9.00000000000e+000
</dep>
<dep Ureg.Vt time>
  -9.99792385636e-013
  +1.51722456649e-005
  +2.94477041550e-005
  +4.37158192543e-005
  +5.79729262266e-005
  +7.22155060814e-005
  +8.64399139080e-005
  +1.00642612294e-004
  +1.14820226461e-004
  +1.29012592247e-004
  +1.53576481059e-004
  +2.39076984271e-003
  +5.82922386514e-002
  +1.69996546262e-001
  +2.94640717386e-001
  +4.23583430629e-001
  +5.54389527958e-001
  +6.86048606030e-001
  +8.18037885835e-001
  +9.50045960854e-001
  +1.08187222945e+000
  +1.21335035413e+000
  +1.34437316216e+000
  +1.47484821038e+000
  +1.60469722572e+000
  +1.73385201876e+000
  +1.86225157462e+000
  +1.98984010968e+000
  +2.11656573001e+000
  +2.24237947408e+000
  +2.36723460839e+000
  +2.49108609156e+000
  +2.61389014974e+000
  +2.73560392587e+000
  +2.85618517437e+000
  +2.97559197775e+000
  +3.09378246487e+000
  +3.21071446262e+000
  +3.32634533552e+000
  +3.44063146701e+000
  +3.55352766851e+000
  +3.66498670219e+000
  +3.77495837959e+000
  +3.88338838242e+000
  +3.99021658728e+000
  +4.09537459150e+000
  +4.19878194300e+000
  +4.30034017491e+000
  +4.39992285891e+000
  +4.49735791087e+000
  +4.59239430698e+000
  +4.68463264624e+000
  +4.77336242010e+000
  +4.85710732528e+000
  +4.93203218400e+000
  +4.98551153389e+000
  +4.99998639555e+000
  +5.00076698827e+000
  +5.00080360561e+000
  +5.00081578061e+000
  +5.00082697839e+000
  +5.00083798759e+000
  +5.00084883627e+000
  +5.00085952274e+000
  +5.00087004162e+000
  +5.00088039276e+000
  +5.00089057344e+000
  +5.00090057823e+000
  +5.00091040725e+000
  +5.00092005786e+000
  +5.00092952477e+000
  +5.00093880824e+000
  +5.00094790578e+000
  +5.00095681222e+000
  +5.00096552797e+000
  +5.00097405070e+000
  +5.00098237536e+000
  +5.00099050253e+000
  +5.00099843001e+000
  +5.00100615292e+000
  +5.00101367197e+000
  +5.00102098514e+000
  +5.00102808768e+000
  +5.00103498049e+000
  +5.00104166166e+000
  +5.00104812666e+000
  +5.00105437649e+000
  +5.00106040946e+000
  +5.00106622116e+000
  +5.00107181278e+000
  +5.00107718278e+000
  +5.00108232693e+000
  +5.00108724659e+000
  +5.00109194038e+000
  +5.00109640425e+000
  +5.00110063972e+000
  +5.00110464560e+000
  +5.00110841801e+000
  +5.00111195865e+000
  +5.00111526649e+000
</dep>
