<Qucs Dataset 0.0.17>
<indep time 100>
  +0.00000000000e+000
  +2.52525252525e-003
  +5.05050505051e-003
  +7.57575757576e-003
  +1.01010101010e-002
  +1.26262626263e-002
  +1.51515151515e-002
  +1.76767676768e-002
  +2.02020202020e-002
  +2.27272727273e-002
  +2.52525252525e-002
  +2.77777777778e-002
  +3.03030303030e-002
  +3.28282828283e-002
  +3.53535353535e-002
  +3.78787878788e-002
  +4.04040404040e-002
  +4.29292929293e-002
  +4.54545454545e-002
  +4.79797979798e-002
  +5.05050505051e-002
  +5.30303030303e-002
  +5.55555555556e-002
  +5.80808080808e-002
  +6.06060606061e-002
  +6.31313131313e-002
  +6.56565656566e-002
  +6.81818181818e-002
  +7.07070707071e-002
  +7.32323232323e-002
  +7.57575757576e-002
  +7.82828282828e-002
  +8.08080808081e-002
  +8.33333333333e-002
  +8.58585858586e-002
  +8.83838383838e-002
  +9.09090909091e-002
  +9.34343434343e-002
  +9.59595959596e-002
  +9.84848484848e-002
  +1.01010101010e-001
  +1.03535353535e-001
  +1.06060606061e-001
  +1.08585858586e-001
  +1.11111111111e-001
  +1.13636363636e-001
  +1.16161616162e-001
  +1.18686868687e-001
  +1.21212121212e-001
  +1.23737373737e-001
  +1.26262626263e-001
  +1.28787878788e-001
  +1.31313131313e-001
  +1.33838383838e-001
  +1.36363636364e-001
  +1.38888888889e-001
  +1.41414141414e-001
  +1.43939393939e-001
  +1.46464646465e-001
  +1.48989898990e-001
  +1.51515151515e-001
  +1.54040404040e-001
  +1.56565656566e-001
  +1.59090909091e-001
  +1.61616161616e-001
  +1.64141414141e-001
  +1.66666666667e-001
  +1.69191919192e-001
  +1.71717171717e-001
  +1.74242424242e-001
  +1.76767676768e-001
  +1.79292929293e-001
  +1.81818181818e-001
  +1.84343434343e-001
  +1.86868686869e-001
  +1.89393939394e-001
  +1.91919191919e-001
  +1.94444444444e-001
  +1.96969696970e-001
  +1.99494949495e-001
  +2.02020202020e-001
  +2.04545454545e-001
  +2.07070707071e-001
  +2.09595959596e-001
  +2.12121212121e-001
  +2.14646464646e-001
  +2.17171717172e-001
  +2.19696969697e-001
  +2.22222222222e-001
  +2.24747474747e-001
  +2.27272727273e-001
  +2.29797979798e-001
  +2.32323232323e-001
  +2.34848484848e-001
  +2.37373737374e-001
  +2.39898989899e-001
  +2.42424242424e-001
  +2.44949494949e-001
  +2.47474747475e-001
  +2.50000000000e-001
</indep>
<dep V3.It time>
  +7.20652958076e-016
  -1.36547781105e-010
  -1.38130697824e-010
  -1.39270031000e-010
  -1.40905347674e-010
  -1.42100351976e-010
  -1.43802201481e-010
  -1.45068782121e-010
  -1.46855125022e-010
  -1.48213680429e-010
  -1.50107753887e-010
  -1.51584910955e-010
  -1.53617375062e-010
  -1.55248661415e-010
  -1.57460939238e-010
  -1.59294992596e-010
  -1.61744701892e-010
  -1.63850358629e-010
  -1.66620653686e-010
  -1.69099467584e-010
  -1.72316134513e-010
  -1.75326071522e-010
  -1.79184024101e-010
  -1.82808676702e-010
  -1.83993004851e-010
  -1.48005704618e-010
  -9.28185867102e-011
  -8.80306167077e-011
  -8.99766641140e-011
  -9.30332177494e-011
  -9.62307519684e-011
  -1.00694569543e-010
  -1.15557761618e-010
  -2.09262870938e-010
  -3.27887134929e-010
  -1.89508496689e-009
  -6.69759833493e-008
  -5.50805791797e-006
  -1.37061116672e-004
  -2.33459349050e-004
  -2.36353259624e-004
  -2.36711613554e-004
  -2.37042296617e-004
  -2.37369329650e-004
  -2.37692242478e-004
  -2.38010758048e-004
  -2.38325419792e-004
  -2.38635686665e-004
  -2.38941758515e-004
  -2.39243149027e-004
  -2.39540136479e-004
  -2.39832269643e-004
  -2.40119837118e-004
  -2.40402395421e-004
  -2.40680233552e-004
  -2.40952914523e-004
  -2.41220726843e-004
  -2.41483238685e-004
  -2.41740739402e-004
  -2.41992802481e-004
  -2.42239717414e-004
  -2.42481063244e-004
  -2.42717129457e-004
  -2.42947500266e-004
  -2.43172378526e-004
  -2.43391703762e-004
  -2.43605155238e-004
  -2.43812938074e-004
  -2.44014996301e-004
  -2.44211015952e-004
  -2.44401204562e-004
  -2.44585510821e-004
  -2.44763627599e-004
  -2.44935765030e-004
  -2.45101876605e-004
  -2.45261662099e-004
  -2.45415334425e-004
  -2.45562851976e-004
  -2.45703921518e-004
  -2.45838758889e-004
  -2.45967327523e-004
  -2.46089341178e-004
  -2.46205018818e-004
  -2.46314328984e-004
  -2.46416992492e-004
  -2.46513231545e-004
  -2.46603019894e-004
  -2.46686085424e-004
  -2.46762653717e-004
  -2.46832703794e-004
  -2.46895970626e-004
  -2.46952683286e-004
  -2.47002826110e-004
  -2.47046141174e-004
  -2.47082861120e-004
  -2.47112975655e-004
  -2.47136233938e-004
  -2.47152872266e-004
  -2.47162885721e-004
  -2.47166030560e-004
</dep>
<dep V4.It time>
  -4.61789124158e-004
  -4.61788902396e-004
  -4.61788906868e-004
  -4.61788897944e-004
  -4.61788902072e-004
  -4.61788893348e-004
  -4.61788897046e-004
  -4.61788888474e-004
  -4.61788891721e-004
  -4.61788883252e-004
  -4.61788886013e-004
  -4.61788877584e-004
  -4.61788879809e-004
  -4.61788871334e-004
  -4.61788872950e-004
  -4.61788864322e-004
  -4.61788865219e-004
  -4.61788856285e-004
  -4.61788856297e-004
  -4.61788846830e-004
  -4.61788845689e-004
  -4.61788835331e-004
  -4.61788832560e-004
  -4.61788820018e-004
  -4.61788801702e-004
  -4.61788646232e-004
  -4.61788428983e-004
  -4.61788384942e-004
  -4.61788353616e-004
  -4.61788325440e-004
  -4.61788282436e-004
  -4.61788235418e-004
  -4.61788166475e-004
  -4.61787339534e-004
  -4.64455430306e-004
  -4.72487090432e-004
  -4.73872334056e-004
  -4.73834590828e-004
  -1.90510700613e-004
  -2.89695324734e-004
  -3.02363776910e-004
  -3.03877524255e-004
  -3.04313696041e-004
  -3.04628150557e-004
  -3.04923861797e-004
  -3.05217825368e-004
  -3.05504292789e-004
  -3.05790498587e-004
  -3.06069071402e-004
  -3.06347143680e-004
  -3.06617397671e-004
  -3.06886994681e-004
  -3.07148624944e-004
  -3.07409456618e-004
  -3.07662180276e-004
  -3.07913969501e-004
  -3.08157514536e-004
  -3.08399993617e-004
  -3.08634097589e-004
  -3.08867009523e-004
  -3.09091420482e-004
  -3.09314518408e-004
  -3.09528994480e-004
  -3.09742041323e-004
  -3.09948164169e-004
  -3.10147307365e-004
  -3.10344857152e-004
  -3.10535320847e-004
  -3.10718646936e-004
  -3.10900227819e-004
  -3.11074573075e-004
  -3.11241635471e-004
  -3.11406813623e-004
  -3.11564619563e-004
  -3.11715010471e-004
  -3.11863391239e-004
  -3.12004276528e-004
  -3.12137628032e-004
  -3.12268856990e-004
  -3.12392480841e-004
  -3.12508465919e-004
  -3.12622229811e-004
  -3.12728292929e-004
  -3.12826626305e-004
  -3.12922653937e-004
  -3.13010899313e-004
  -3.13091338270e-004
  -3.13169401217e-004
  -3.13239614858e-004
  -3.13301959882e-004
  -3.13361873135e-004
  -3.13413884635e-004
  -3.13457979975e-004
  -3.13499602444e-004
  -3.13533285456e-004
  -3.13559019553e-004
  -3.13582254453e-004
  -3.13597527046e-004
  -3.13604832826e-004
  -3.13609627954e-004
</dep>
<dep Out.Vt time>
  +1.22583220955e+000
  +1.22583222722e+000
  +1.22583222877e+000
  +1.22583222764e+000
  +1.22583222917e+000
  +1.22583222809e+000
  +1.22583222960e+000
  +1.22583222856e+000
  +1.22583223006e+000
  +1.22583222908e+000
  +1.22583223057e+000
  +1.22583222964e+000
  +1.22583223113e+000
  +1.22583223026e+000
  +1.22583223176e+000
  +1.22583223097e+000
  +1.22583223250e+000
  +1.22583223179e+000
  +1.22583223337e+000
  +1.22583223277e+000
  +1.22583223443e+000
  +1.22583223399e+000
  +1.22583223580e+000
  +1.22583223579e+000
  +1.22583224160e+000
  +1.22583228260e+000
  +1.22583234381e+000
  +1.22583235668e+000
  +1.22583236139e+000
  +1.22583236890e+000
  +1.22583237600e+000
  +1.22583238743e+000
  +1.22583240519e+000
  +1.22583278330e+000
  +1.22583614706e+000
  +1.22589815670e+000
  +1.22680543055e+000
  +1.25373275903e+000
  +4.99545034360e+000
  +4.99485587480e+000
  +4.99428129920e+000
  +4.99372509460e+000
  +4.99318631094e+000
  +4.99266431464e+000
  +4.99215844977e+000
  +4.99166803959e+000
  +4.99119258888e+000
  +4.99073145585e+000
  +4.99028421748e+000
  +4.98985031440e+000
  +4.98942933601e+000
  +4.98902076930e+000
  +4.98862427558e+000
  +4.98823937384e+000
  +4.98786574979e+000
  +4.98750297294e+000
  +4.98715076862e+000
  +4.98680871315e+000
  +4.98647656898e+000
  +4.98615396219e+000
  +4.98584065214e+000
  +4.98553629686e+000
  +4.98524068889e+000
  +4.98495349122e+000
  +4.98467451609e+000
  +4.98440351072e+000
  +4.98414019126e+000
  +4.98388438153e+000
  +4.98363584626e+000
  +4.98339433413e+000
  +4.98315970181e+000
  +4.98293173992e+000
  +4.98271020672e+000
  +4.98249497512e+000
  +4.98228585796e+000
  +4.98208262877e+000
  +4.98188517710e+000
  +4.98169333428e+000
  +4.98150688361e+000
  +4.98132574186e+000
  +4.98114974200e+000
  +4.98097869728e+000
  +4.98081251138e+000
  +4.98065105330e+000
  +4.98049414195e+000
  +4.98034169766e+000
  +4.98019358687e+000
  +4.98004964557e+000
  +4.97990981049e+000
  +4.97977396248e+000
  +4.97964193148e+000
  +4.97951367422e+000
  +4.97938908520e+000
  +4.97926799518e+000
  +4.97915037422e+000
  +4.97903611439e+000
  +4.97892506984e+000
  +4.97881720666e+000
  +4.97871243657e+000
  +4.97861062537e+000
</dep>
<dep Ureg.Vt time>
  +5.00000000000e+000
  +5.00000000000e+000
  +5.00000000000e+000
  +5.00000000000e+000
  +5.00000000000e+000
  +5.00000000000e+000
  +5.00000000000e+000
  +5.00000000000e+000
  +5.00000000000e+000
  +5.00000000000e+000
  +5.00000000000e+000
  +5.00000000000e+000
  +5.00000000000e+000
  +5.00000000000e+000
  +5.00000000000e+000
  +5.00000000000e+000
  +5.00000000000e+000
  +5.00000000000e+000
  +5.00000000000e+000
  +5.00000000000e+000
  +5.00000000000e+000
  +5.00000000000e+000
  +5.00000000000e+000
  +5.00000000000e+000
  +5.00000000000e+000
  +5.00000000000e+000
  +5.00000000000e+000
  +5.00000000000e+000
  +5.00000000000e+000
  +5.00000000000e+000
  +5.00000000000e+000
  +5.00000000000e+000
  +5.00000000000e+000
  +5.00000000000e+000
  +5.00000000000e+000
  +5.00000000000e+000
  +5.00000000000e+000
  +5.00000000000e+000
  +5.00000000000e+000
  +5.00000000000e+000
  +5.00000000000e+000
  +5.00000000000e+000
  +5.00000000000e+000
  +5.00000000000e+000
  +5.00000000000e+000
  +5.00000000000e+000
  +5.00000000000e+000
  +5.00000000000e+000
  +5.00000000000e+000
  +5.00000000000e+000
  +5.00000000000e+000
  +5.00000000000e+000
  +5.00000000000e+000
  +5.00000000000e+000
  +5.00000000000e+000
  +5.00000000000e+000
  +5.00000000000e+000
  +5.00000000000e+000
  +5.00000000000e+000
  +5.00000000000e+000
  +5.00000000000e+000
  +5.00000000000e+000
  +5.00000000000e+000
  +5.00000000000e+000
  +5.00000000000e+000
  +5.00000000000e+000
  +5.00000000000e+000
  +5.00000000000e+000
  +5.00000000000e+000
  +5.00000000000e+000
  +5.00000000000e+000
  +5.00000000000e+000
  +5.00000000000e+000
  +5.00000000000e+000
  +5.00000000000e+000
  +5.00000000000e+000
  +5.00000000000e+000
  +5.00000000000e+000
  +5.00000000000e+000
  +5.00000000000e+000
  +5.00000000000e+000
  +5.00000000000e+000
  +5.00000000000e+000
  +5.00000000000e+000
  +5.00000000000e+000
  +5.00000000000e+000
  +5.00000000000e+000
  +5.00000000000e+000
  +5.00000000000e+000
  +5.00000000000e+000
  +5.00000000000e+000
  +5.00000000000e+000
  +5.00000000000e+000
  +5.00000000000e+000
  +5.00000000000e+000
  +5.00000000000e+000
  +5.00000000000e+000
  +5.00000000000e+000
  +5.00000000000e+000
  +5.00000000000e+000
</dep>
<dep In.Vt time>
  +0.00000000000e+000
  +1.42793674513e-001
  +2.85551401483e-001
  +4.28237242414e-001
  +5.70815276909e-001
  +7.13249611711e-001
  +8.55504389738e-001
  +9.97543799109e-001
  +1.13933208216e+000
  +1.28083354446e+000
  +1.42201256376e+000
  +1.56283359900e+000
  +1.70326119924e+000
  +1.84326001259e+000
  +1.98279479508e+000
  +2.12183041958e+000
  +2.26033188463e+000
  +2.39826432321e+000
  +2.53559301157e+000
  +2.67228337795e+000
  +2.80830101129e+000
  +2.94361166986e+000
  +3.07818128993e+000
  +3.21197599433e+000
  +3.34496210094e+000
  +3.47710613124e+000
  +3.60837481866e+000
  +3.73873511702e+000
  +3.86815420880e+000
  +3.99659951345e+000
  +4.12403869555e+000
  +4.25043967295e+000
  +4.37577062490e+000
  +4.50000000000e+000
  +4.62309652416e+000
  +4.74502920849e+000
  +4.86576735710e+000
  +4.98528057479e+000
  +5.10353877476e+000
  +5.22051218614e+000
  +5.33617136149e+000
  +5.45048718424e+000
  +5.56343087599e+000
  +5.67497400376e+000
  +5.78508848718e+000
  +5.89374660551e+000
  +6.00092100465e+000
  +6.10658470401e+000
  +6.21071110334e+000
  +6.31327398936e+000
  +6.41424754241e+000
  +6.51360634295e+000
  +6.61132537792e+000
  +6.70738004708e+000
  +6.80174616919e+000
  +6.89439998807e+000
  +6.98531817863e+000
  +7.07447785269e+000
  +7.16185656478e+000
  +7.24743231778e+000
  +7.33118356845e+000
  +7.41308923287e+000
  +7.49312869171e+000
  +7.57128179548e+000
  +7.64752886955e+000
  +7.72185071911e+000
  +7.79422863406e+000
  +7.86464439363e+000
  +7.93308027103e+000
  +7.99951903789e+000
  +8.06394396862e+000
  +8.12633884458e+000
  +8.18668795819e+000
  +8.24497611689e+000
  +8.30118864694e+000
  +8.35531139714e+000
  +8.40733074239e+000
  +8.45723358707e+000
  +8.50500736843e+000
  +8.55064005967e+000
  +8.59412017300e+000
  +8.63543676253e+000
  +8.67457942704e+000
  +8.71153831257e+000
  +8.74630411491e+000
  +8.77886808197e+000
  +8.80922201593e+000
  +8.83735827536e+000
  +8.86326977711e+000
  +8.88694999809e+000
  +8.90839297693e+000
  +8.92759331548e+000
  +8.94454618015e+000
  +8.95924730316e+000
  +8.97169298357e+000
  +8.98188008825e+000
  +8.98980605265e+000
  +8.99546888145e+000
  +8.99886714906e+000
  +9.00000000000e+000
</dep>
