<Qucs Dataset 0.0.17>
<indep time 100>
  +0.00000000000e+000
  +2.52525252525e-003
  +5.05050505051e-003
  +7.57575757576e-003
  +1.01010101010e-002
  +1.26262626263e-002
  +1.51515151515e-002
  +1.76767676768e-002
  +2.02020202020e-002
  +2.27272727273e-002
  +2.52525252525e-002
  +2.77777777778e-002
  +3.03030303030e-002
  +3.28282828283e-002
  +3.53535353535e-002
  +3.78787878788e-002
  +4.04040404040e-002
  +4.29292929293e-002
  +4.54545454545e-002
  +4.79797979798e-002
  +5.05050505051e-002
  +5.30303030303e-002
  +5.55555555556e-002
  +5.80808080808e-002
  +6.06060606061e-002
  +6.31313131313e-002
  +6.56565656566e-002
  +6.81818181818e-002
  +7.07070707071e-002
  +7.32323232323e-002
  +7.57575757576e-002
  +7.82828282828e-002
  +8.08080808081e-002
  +8.33333333333e-002
  +8.58585858586e-002
  +8.83838383838e-002
  +9.09090909091e-002
  +9.34343434343e-002
  +9.59595959596e-002
  +9.84848484848e-002
  +1.01010101010e-001
  +1.03535353535e-001
  +1.06060606061e-001
  +1.08585858586e-001
  +1.11111111111e-001
  +1.13636363636e-001
  +1.16161616162e-001
  +1.18686868687e-001
  +1.21212121212e-001
  +1.23737373737e-001
  +1.26262626263e-001
  +1.28787878788e-001
  +1.31313131313e-001
  +1.33838383838e-001
  +1.36363636364e-001
  +1.38888888889e-001
  +1.41414141414e-001
  +1.43939393939e-001
  +1.46464646465e-001
  +1.48989898990e-001
  +1.51515151515e-001
  +1.54040404040e-001
  +1.56565656566e-001
  +1.59090909091e-001
  +1.61616161616e-001
  +1.64141414141e-001
  +1.66666666667e-001
  +1.69191919192e-001
  +1.71717171717e-001
  +1.74242424242e-001
  +1.76767676768e-001
  +1.79292929293e-001
  +1.81818181818e-001
  +1.84343434343e-001
  +1.86868686869e-001
  +1.89393939394e-001
  +1.91919191919e-001
  +1.94444444444e-001
  +1.96969696970e-001
  +1.99494949495e-001
  +2.02020202020e-001
  +2.04545454545e-001
  +2.07070707071e-001
  +2.09595959596e-001
  +2.12121212121e-001
  +2.14646464646e-001
  +2.17171717172e-001
  +2.19696969697e-001
  +2.22222222222e-001
  +2.24747474747e-001
  +2.27272727273e-001
  +2.29797979798e-001
  +2.32323232323e-001
  +2.34848484848e-001
  +2.37373737374e-001
  +2.39898989899e-001
  +2.42424242424e-001
  +2.44949494949e-001
  +2.47474747475e-001
  +2.50000000000e-001
</indep>
<dep V1.It time>
  -9.08718093143e-004
  +2.61076188046e-010
  -1.76350267102e-010
  -1.78449630750e-010
  +2.54733293002e-010
  -1.82640668079e-010
  +2.50550288331e-010
  -1.86800904232e-010
  +2.46378144877e-010
  -1.90943906715e-010
  +2.42229034968e-010
  -1.95062469836e-010
  +2.38098708754e-010
  -1.99171459856e-010
  +2.33973525584e-010
  -2.03272309196e-010
  +2.29862366811e-010
  -2.07357373645e-010
  +2.25761555985e-010
  -2.11440836402e-010
  +2.21658123478e-010
  -2.15523808470e-010
  +2.17561286461e-010
  -2.19598278855e-010
  +2.13467527208e-010
  -2.23678183295e-010
  +2.09364088262e-010
  -2.27764712827e-010
  +2.05260193679e-010
  -2.31849815330e-010
  +2.01152124815e-010
  -2.35947585728e-010
  +1.97026924485e-010
  -2.40059683740e-010
  +1.92893494945e-010
  -2.44178302378e-010
  +1.88747498826e-010
  -2.48318211029e-010
  +1.84575327351e-010
  -2.52481952836e-010
  +1.80385137815e-010
  -2.56662413538e-010
  +1.76171432577e-010
  -2.60875617116e-010
  +1.71919336908e-010
  -2.65125678278e-010
  +1.67635670896e-010
  -2.69406789053e-010
  +1.63312933144e-010
  -2.73737132062e-010
  +1.58934008648e-010
  -2.78123492580e-010
  +1.54503361370e-010
  -2.82562437008e-010
  +1.50010021771e-010
  -2.87075881849e-010
  +1.45433038422e-010
  -2.91675232732e-010
  +1.40772566229e-010
  -2.96361500217e-010
  +1.36011396721e-010
  -3.01163278407e-010
  +1.31121607267e-010
  -3.06100545096e-010
  +1.26094981762e-010
  -3.11183075594e-010
  +1.20902344769e-010
  -3.16452494049e-010
  +1.15501800317e-010
  -3.21946099680e-010
  +1.09867408749e-010
  -3.27692952860e-010
  +1.03944139284e-010
  -3.33763314783e-010
  +9.76583683605e-011
  -3.40234780282e-010
  +9.09404171085e-011
  -3.47185937755e-010
  +8.36690677509e-011
  -3.54763495494e-010
  +7.56813300439e-011
  -3.63121298590e-010
  +7.16083667745e-011
  +1.68473772069e-010
  +1.97748878316e-010
  -3.03012967370e-010
  +1.24686179476e-010
  +1.20323111299e-010
  -3.18805027481e-010
  +9.98625771310e-011
  +8.05498031163e-011
  +6.18147561865e-011
  -3.83658282014e-010
  +6.39276475813e-011
  +9.84371680760e-011
  -5.01978538029e-010
  -2.10413611056e-009
  -2.04675688930e-008
  -5.98977928563e-008
  -6.96283236898e-008
</dep>
<dep V2.It time>
  -2.24015455923e-002
  -3.12155479223e-004
  -3.12504012467e-004
  -3.12621815179e-004
  -3.12508855710e-004
  -3.12839827856e-004
  -3.12715071262e-004
  -3.13034190616e-004
  -3.12897528962e-004
  -3.13204694068e-004
  -3.13056032260e-004
  -3.13351154470e-004
  -3.13190410283e-004
  -3.13473413856e-004
  -3.13300518057e-004
  -3.13571340332e-004
  -3.13386236777e-004
  -3.13644828194e-004
  -3.13447473870e-004
  -3.13693798015e-004
  -3.13484163101e-004
  -3.13718196808e-004
  -3.13496264749e-004
  -3.13717998098e-004
  -3.13483765558e-004
  -3.13693201851e-004
  -3.13446678762e-004
  -3.13643834596e-004
  -3.13385044149e-004
  -3.13569949347e-004
  -3.13298927937e-004
  -3.13471625473e-004
  -3.13188422653e-004
  -3.13348968695e-004
  -3.13053647166e-004
  -3.13202110932e-004
  -3.12894746380e-004
  -3.13031210055e-004
  -3.12711891110e-004
  -3.12836449785e-004
  -3.12505277935e-004
  -3.12618039450e-004
  -3.12275128841e-004
  -3.12376213668e-004
  -3.12021691009e-004
  -3.12111232092e-004
  -3.11745236523e-004
  -3.11823379124e-004
  -3.11446061968e-004
  -3.11512963487e-004
  -3.11124488117e-004
  -3.11180317879e-004
  -3.10780859533e-004
  -3.10825798596e-004
  -3.10415544083e-004
  -3.10449785029e-004
  -3.10028932573e-004
  -3.10052679213e-004
  -3.09621438207e-004
  -3.09634905390e-004
  -3.09193496055e-004
  -3.09196909414e-004
  -3.08745562634e-004
  -3.08739158221e-004
  -3.08278115234e-004
  -3.08262139326e-004
  -3.07791651368e-004
  -3.07766360202e-004
  -3.07286688317e-004
  -3.07252347651e-004
  -3.06763762381e-004
  -3.06720647350e-004
  -3.06223428390e-004
  -3.06171823332e-004
  -3.05666259463e-004
  -3.05606457620e-004
  -3.05092846735e-004
  -3.05025150691e-004
  -3.04503800609e-004
  -3.04428520905e-004
  -3.03899489789e-004
  -3.03795087015e-004
  -3.01386332089e-004
  -2.30993575508e-004
  -1.36763276710e-004
  -1.33709735082e-004
  -1.33417632359e-004
  -1.33382222921e-004
  -1.33571680577e-004
  -1.33311227411e-004
  -1.33275371548e-004
  -1.33239250630e-004
  -1.33427747062e-004
  -1.33165929424e-004
  -1.33126117898e-004
  -1.33280713382e-004
  -1.32612453791e-004
  -1.28984608895e-004
  -4.64634391869e-004
  -4.63146595424e-004
</dep>
<dep V3.It time>
  -6.47139393711e-003
  -2.45704163587e-004
  -2.45838448741e-004
  -2.45966937794e-004
  -2.46089596522e-004
  -2.46204721363e-004
  -2.46314509272e-004
  -2.46416702848e-004
  -2.46513502886e-004
  -2.46602655114e-004
  -2.46686364091e-004
  -2.46762378799e-004
  -2.46832907532e-004
  -2.46895702568e-004
  -2.46952975960e-004
  -2.47002483341e-004
  -2.47046440462e-004
  -2.47082606418e-004
  -2.47113200618e-004
  -2.47135985658e-004
  -2.47153184585e-004
  -2.47162563561e-004
  -2.47166349226e-004
  -2.47162311354e-004
  -2.47152680133e-004
  -2.47135228997e-004
  -2.47112191648e-004
  -2.47081345217e-004
  -2.47044926853e-004
  -2.47000717440e-004
  -2.46950957519e-004
  -2.46893431731e-004
  -2.46830383976e-004
  -2.46759602689e-004
  -2.46683335061e-004
  -2.46599373310e-004
  -2.46509967873e-004
  -2.46412914788e-004
  -2.46310467646e-004
  -2.46200426317e-004
  -2.46085047495e-004
  -2.45962134848e-004
  -2.45833948126e-004
  -2.45698294818e-004
  -2.45557437603e-004
  -2.45409187783e-004
  -2.45255810948e-004
  -2.45095122139e-004
  -2.44929389792e-004
  -2.44756432718e-004
  -2.44578522043e-004
  -2.44393480319e-004
  -2.44203581362e-004
  -2.44006651348e-004
  -2.43804966712e-004
  -2.43596357310e-004
  -2.43383101988e-004
  -2.43163034220e-004
  -2.42938435314e-004
  -2.42707142186e-004
  -2.42471438521e-004
  -2.42229164778e-004
  -2.41982606741e-004
  -2.41729608311e-004
  -2.41472457492e-004
  -2.41209001377e-004
  -2.40941530084e-004
  -2.40667894068e-004
  -2.40390385166e-004
  -2.40106857040e-004
  -2.39819603514e-004
  -2.39526481005e-004
  -2.39229785183e-004
  -2.38927375555e-004
  -2.38621548914e-004
  -2.38310167539e-004
  -2.37995529824e-004
  -2.37675499736e-004
  -2.37352376414e-004
  -2.37024021208e-004
  -2.36692386856e-004
  -2.36326757837e-004
  -2.33480334579e-004
  -1.39001140621e-004
  -5.76796547905e-006
  -1.29964766098e-007
  -7.24101144596e-008
  -7.16768506844e-008
  -7.08816954847e-008
  -7.12798230003e-008
  -7.10802241113e-008
  -7.08789761664e-008
  -7.00765819591e-008
  -7.04699652195e-008
  -7.02495471420e-008
  -6.92768177812e-008
  -6.76385932813e-008
  -4.90309352594e-008
  -1.11737485782e-008
  -1.41440686228e-009
</dep>
<dep Out.Vt time>
  +1.98055095890e+000
  +4.99754446327e+000
  +4.99688247868e+000
  +4.99624236328e+000
  +4.99562310347e+000
  +4.99502424314e+000
  +4.99444428733e+000
  +4.99388307305e+000
  +4.99333921896e+000
  +4.99281262909e+000
  +4.99230202075e+000
  +4.99180739782e+000
  +4.99132754334e+000
  +4.99086251493e+000
  +4.99041118544e+000
  +4.98997365864e+000
  +4.98954884703e+000
  +4.98913692779e+000
  +4.98873684037e+000
  +4.98834880693e+000
  +4.98797182034e+000
  +4.98760612714e+000
  +4.98725075213e+000
  +4.98690598171e+000
  +4.98657086108e+000
  +4.98624570146e+000
  +4.98592958927e+000
  +4.98562285453e+000
  +4.98532459818e+000
  +4.98503518581e+000
  +4.98475372379e+000
  +4.98448059578e+000
  +4.98421494308e+000
  +4.98395716104e+000
  +4.98370639406e+000
  +4.98346306123e+000
  +4.98322632870e+000
  +4.98299661281e+000
  +4.98277311257e+000
  +4.98255625116e+000
  +4.98234522629e+000
  +4.98214048983e+000
  +4.98194124511e+000
  +4.98174795016e+000
  +4.98155982541e+000
  +4.98137733568e+000
  +4.98119970570e+000
  +4.98102741753e+000
  +4.98085970247e+000
  +4.98069704220e+000
  +4.98053869133e+000
  +4.98038513459e+000
  +4.98023562866e+000
  +4.98009067443e+000
  +4.97994951825e+000
  +4.97981267633e+000
  +4.97967941662e+000
  +4.97955025425e+000
  +4.97942445021e+000
  +4.97930253871e+000
  +4.97918377850e+000
  +4.97906870481e+000
  +4.97895660055e+000
  +4.97884799886e+000
  +4.97874218910e+000
  +4.97863969541e+000
  +4.97853982356e+000
  +4.97844310111e+000
  +4.97834883179e+000
  +4.97825756356e+000
  +4.97816859914e+000
  +4.97808248291e+000
  +4.97799852473e+000
  +4.97791727389e+000
  +4.97783804010e+000
  +4.97776138644e+000
  +4.97768662411e+000
  +4.97761431228e+000
  +4.97754375962e+000
  +4.97747553885e+000
  +4.97740897130e+000
  +4.97734461420e+000
  +4.97728170874e+000
  +4.97721954125e+000
  +4.97716172057e+000
  +4.97710461841e+000
  +4.97704869154e+000
  +4.97699454696e+000
  +4.97694213896e+000
  +4.97689088675e+000
  +4.97684128427e+000
  +4.97679310567e+000
  +4.97674649915e+000
  +4.97670088495e+000
  +4.97665676235e+000
  +4.97661408930e+000
  +4.97657231353e+000
  +4.97653227457e+000
  +1.23529060174e+000
  +1.23090876850e+000
</dep>
<dep _net0.Vt time>
  +3.30000000000e+000
  +3.30000000000e+000
  +3.30000000000e+000
  +3.30000000000e+000
  +3.30000000000e+000
  +3.30000000000e+000
  +3.30000000000e+000
  +3.30000000000e+000
  +3.30000000000e+000
  +3.30000000000e+000
  +3.30000000000e+000
  +3.30000000000e+000
  +3.30000000000e+000
  +3.30000000000e+000
  +3.30000000000e+000
  +3.30000000000e+000
  +3.30000000000e+000
  +3.30000000000e+000
  +3.30000000000e+000
  +3.30000000000e+000
  +3.30000000000e+000
  +3.30000000000e+000
  +3.30000000000e+000
  +3.30000000000e+000
  +3.30000000000e+000
  +3.30000000000e+000
  +3.30000000000e+000
  +3.30000000000e+000
  +3.30000000000e+000
  +3.30000000000e+000
  +3.30000000000e+000
  +3.30000000000e+000
  +3.30000000000e+000
  +3.30000000000e+000
  +3.30000000000e+000
  +3.30000000000e+000
  +3.30000000000e+000
  +3.30000000000e+000
  +3.30000000000e+000
  +3.30000000000e+000
  +3.30000000000e+000
  +3.30000000000e+000
  +3.30000000000e+000
  +3.30000000000e+000
  +3.30000000000e+000
  +3.30000000000e+000
  +3.30000000000e+000
  +3.30000000000e+000
  +3.30000000000e+000
  +3.30000000000e+000
  +3.30000000000e+000
  +3.30000000000e+000
  +3.30000000000e+000
  +3.30000000000e+000
  +3.30000000000e+000
  +3.30000000000e+000
  +3.30000000000e+000
  +3.30000000000e+000
  +3.30000000000e+000
  +3.30000000000e+000
  +3.30000000000e+000
  +3.30000000000e+000
  +3.30000000000e+000
  +3.30000000000e+000
  +3.30000000000e+000
  +3.30000000000e+000
  +3.30000000000e+000
  +3.30000000000e+000
  +3.30000000000e+000
  +3.30000000000e+000
  +3.30000000000e+000
  +3.30000000000e+000
  +3.30000000000e+000
  +3.30000000000e+000
  +3.30000000000e+000
  +3.30000000000e+000
  +3.30000000000e+000
  +3.30000000000e+000
  +3.30000000000e+000
  +3.30000000000e+000
  +3.30000000000e+000
  +3.30000000000e+000
  +3.30000000000e+000
  +3.30000000000e+000
  +3.30000000000e+000
  +3.30000000000e+000
  +3.30000000000e+000
  +3.30000000000e+000
  +3.30000000000e+000
  +3.30000000000e+000
  +3.30000000000e+000
  +3.30000000000e+000
  +3.30000000000e+000
  +3.30000000000e+000
  +3.30000000000e+000
  +3.30000000000e+000
  +3.30000000000e+000
  +3.30000000000e+000
  +3.30000000000e+000
  +3.30000000000e+000
</dep>
<dep In.Vt time>
  +8.45723358707e+000
  +8.50500736843e+000
  +8.55064005967e+000
  +8.59412017300e+000
  +8.63543676253e+000
  +8.67457942704e+000
  +8.71153831257e+000
  +8.74630411491e+000
  +8.77886808197e+000
  +8.80922201593e+000
  +8.83735827536e+000
  +8.86326977711e+000
  +8.88694999809e+000
  +8.90839297693e+000
  +8.92759331548e+000
  +8.94454618015e+000
  +8.95924730316e+000
  +8.97169298357e+000
  +8.98188008825e+000
  +8.98980605265e+000
  +8.99546888145e+000
  +8.99886714906e+000
  +9.00000000000e+000
  +8.99886714906e+000
  +8.99546888145e+000
  +8.98980605265e+000
  +8.98188008825e+000
  +8.97169298357e+000
  +8.95924730316e+000
  +8.94454618015e+000
  +8.92759331548e+000
  +8.90839297693e+000
  +8.88694999809e+000
  +8.86326977711e+000
  +8.83735827536e+000
  +8.80922201593e+000
  +8.77886808197e+000
  +8.74630411491e+000
  +8.71153831257e+000
  +8.67457942704e+000
  +8.63543676253e+000
  +8.59412017300e+000
  +8.55064005967e+000
  +8.50500736843e+000
  +8.45723358707e+000
  +8.40733074239e+000
  +8.35531139714e+000
  +8.30118864694e+000
  +8.24497611689e+000
  +8.18668795819e+000
  +8.12633884458e+000
  +8.06394396862e+000
  +7.99951903789e+000
  +7.93308027103e+000
  +7.86464439363e+000
  +7.79422863406e+000
  +7.72185071911e+000
  +7.64752886955e+000
  +7.57128179548e+000
  +7.49312869171e+000
  +7.41308923287e+000
  +7.33118356845e+000
  +7.24743231778e+000
  +7.16185656478e+000
  +7.07447785269e+000
  +6.98531817863e+000
  +6.89439998807e+000
  +6.80174616919e+000
  +6.70738004708e+000
  +6.61132537792e+000
  +6.51360634295e+000
  +6.41424754241e+000
  +6.31327398936e+000
  +6.21071110334e+000
  +6.10658470401e+000
  +6.00092100465e+000
  +5.89374660551e+000
  +5.78508848718e+000
  +5.67497400376e+000
  +5.56343087599e+000
  +5.45048718424e+000
  +5.33617136149e+000
  +5.22051218614e+000
  +5.10353877476e+000
  +4.98528057479e+000
  +4.86576735710e+000
  +4.74502920849e+000
  +4.62309652416e+000
  +4.50000000000e+000
  +4.37577062490e+000
  +4.25043967295e+000
  +4.12403869555e+000
  +3.99659951345e+000
  +3.86815420880e+000
  +3.73873511702e+000
  +3.60837481866e+000
  +3.47710613124e+000
  +3.34496210094e+000
  +3.21197599433e+000
  +3.07818128993e+000
</dep>
<dep _net1.Vt time>
  +5.00000000000e+000
  +5.00000000000e+000
  +5.00000000000e+000
  +5.00000000000e+000
  +5.00000000000e+000
  +5.00000000000e+000
  +5.00000000000e+000
  +5.00000000000e+000
  +5.00000000000e+000
  +5.00000000000e+000
  +5.00000000000e+000
  +5.00000000000e+000
  +5.00000000000e+000
  +5.00000000000e+000
  +5.00000000000e+000
  +5.00000000000e+000
  +5.00000000000e+000
  +5.00000000000e+000
  +5.00000000000e+000
  +5.00000000000e+000
  +5.00000000000e+000
  +5.00000000000e+000
  +5.00000000000e+000
  +5.00000000000e+000
  +5.00000000000e+000
  +5.00000000000e+000
  +5.00000000000e+000
  +5.00000000000e+000
  +5.00000000000e+000
  +5.00000000000e+000
  +5.00000000000e+000
  +5.00000000000e+000
  +5.00000000000e+000
  +5.00000000000e+000
  +5.00000000000e+000
  +5.00000000000e+000
  +5.00000000000e+000
  +5.00000000000e+000
  +5.00000000000e+000
  +5.00000000000e+000
  +5.00000000000e+000
  +5.00000000000e+000
  +5.00000000000e+000
  +5.00000000000e+000
  +5.00000000000e+000
  +5.00000000000e+000
  +5.00000000000e+000
  +5.00000000000e+000
  +5.00000000000e+000
  +5.00000000000e+000
  +5.00000000000e+000
  +5.00000000000e+000
  +5.00000000000e+000
  +5.00000000000e+000
  +5.00000000000e+000
  +5.00000000000e+000
  +5.00000000000e+000
  +5.00000000000e+000
  +5.00000000000e+000
  +5.00000000000e+000
  +5.00000000000e+000
  +5.00000000000e+000
  +5.00000000000e+000
  +5.00000000000e+000
  +5.00000000000e+000
  +5.00000000000e+000
  +5.00000000000e+000
  +5.00000000000e+000
  +5.00000000000e+000
  +5.00000000000e+000
  +5.00000000000e+000
  +5.00000000000e+000
  +5.00000000000e+000
  +5.00000000000e+000
  +5.00000000000e+000
  +5.00000000000e+000
  +5.00000000000e+000
  +5.00000000000e+000
  +5.00000000000e+000
  +5.00000000000e+000
  +5.00000000000e+000
  +5.00000000000e+000
  +5.00000000000e+000
  +5.00000000000e+000
  +5.00000000000e+000
  +5.00000000000e+000
  +5.00000000000e+000
  +5.00000000000e+000
  +5.00000000000e+000
  +5.00000000000e+000
  +5.00000000000e+000
  +5.00000000000e+000
  +5.00000000000e+000
  +5.00000000000e+000
  +5.00000000000e+000
  +5.00000000000e+000
  +5.00000000000e+000
  +5.00000000000e+000
  +5.00000000000e+000
  +5.00000000000e+000
</dep>
