<Qucs Dataset 0.0.17>
<indep time 100>
  +0.00000000000e+000
  +2.52525252525e-003
  +5.05050505051e-003
  +7.57575757576e-003
  +1.01010101010e-002
  +1.26262626263e-002
  +1.51515151515e-002
  +1.76767676768e-002
  +2.02020202020e-002
  +2.27272727273e-002
  +2.52525252525e-002
  +2.77777777778e-002
  +3.03030303030e-002
  +3.28282828283e-002
  +3.53535353535e-002
  +3.78787878788e-002
  +4.04040404040e-002
  +4.29292929293e-002
  +4.54545454545e-002
  +4.79797979798e-002
  +5.05050505051e-002
  +5.30303030303e-002
  +5.55555555556e-002
  +5.80808080808e-002
  +6.06060606061e-002
  +6.31313131313e-002
  +6.56565656566e-002
  +6.81818181818e-002
  +7.07070707071e-002
  +7.32323232323e-002
  +7.57575757576e-002
  +7.82828282828e-002
  +8.08080808081e-002
  +8.33333333333e-002
  +8.58585858586e-002
  +8.83838383838e-002
  +9.09090909091e-002
  +9.34343434343e-002
  +9.59595959596e-002
  +9.84848484848e-002
  +1.01010101010e-001
  +1.03535353535e-001
  +1.06060606061e-001
  +1.08585858586e-001
  +1.11111111111e-001
  +1.13636363636e-001
  +1.16161616162e-001
  +1.18686868687e-001
  +1.21212121212e-001
  +1.23737373737e-001
  +1.26262626263e-001
  +1.28787878788e-001
  +1.31313131313e-001
  +1.33838383838e-001
  +1.36363636364e-001
  +1.38888888889e-001
  +1.41414141414e-001
  +1.43939393939e-001
  +1.46464646465e-001
  +1.48989898990e-001
  +1.51515151515e-001
  +1.54040404040e-001
  +1.56565656566e-001
  +1.59090909091e-001
  +1.61616161616e-001
  +1.64141414141e-001
  +1.66666666667e-001
  +1.69191919192e-001
  +1.71717171717e-001
  +1.74242424242e-001
  +1.76767676768e-001
  +1.79292929293e-001
  +1.81818181818e-001
  +1.84343434343e-001
  +1.86868686869e-001
  +1.89393939394e-001
  +1.91919191919e-001
  +1.94444444444e-001
  +1.96969696970e-001
  +1.99494949495e-001
  +2.02020202020e-001
  +2.04545454545e-001
  +2.07070707071e-001
  +2.09595959596e-001
  +2.12121212121e-001
  +2.14646464646e-001
  +2.17171717172e-001
  +2.19696969697e-001
  +2.22222222222e-001
  +2.24747474747e-001
  +2.27272727273e-001
  +2.29797979798e-001
  +2.32323232323e-001
  +2.34848484848e-001
  +2.37373737374e-001
  +2.39898989899e-001
  +2.42424242424e-001
  +2.44949494949e-001
  +2.47474747475e-001
  +2.50000000000e-001
</indep>
<dep V1.It time>
  -6.92959138367e-008
  -6.92954555016e-008
  -6.92959825661e-008
  -6.92954436140e-008
  -6.92959718549e-008
  -6.92954292685e-008
  -6.92959586869e-008
  -6.92954124023e-008
  -6.92959422258e-008
  -6.92953919367e-008
  -6.92959210900e-008
  -6.92953661180e-008
  -6.92958929511e-008
  -6.92953306593e-008
  -6.92958226286e-008
  -6.92946710541e-008
  -6.92931946468e-008
  -6.92926499928e-008
  -6.92918507208e-008
  -6.92920358831e-008
  -6.92875721082e-008
  -6.92220241772e-008
  -6.83536173036e-008
  -5.85904394925e-008
  -2.03840126147e-008
  -1.96717695790e-009
  +5.64731779138e-011
  -3.76350612170e-011
  +2.33118047806e-010
  -1.45986492252e-011
  -1.54716500765e-011
  +2.35191441915e-010
  -2.42276358089e-011
  -2.83810141386e-011
  +2.22742948591e-010
  -3.55699069502e-011
  -3.99591534122e-011
  +1.47364583410e-010
  +1.77133011740e-010
  +1.92680360010e-011
  +1.84225972534e-011
  +2.70093240056e-010
  +9.96035081095e-012
  +2.62019537326e-010
  +2.58273759449e-010
  -1.27406454266e-012
  +2.51230977895e-010
  +2.47912763643e-010
  -1.12256403013e-011
  +2.41588218585e-010
  +2.38573369568e-010
  -2.02669727645e-011
  +2.32767814762e-010
  +2.29974932109e-010
  -2.86395073870e-011
  +2.24554888169e-010
  +2.21928812762e-010
  -3.65092836986e-011
  +2.16802166689e-010
  +2.14304069657e-010
  -4.39937751333e-011
  +2.09404256949e-010
  +2.07005890338e-010
  -5.11788805509e-011
  +2.02283858813e-010
  +1.99963986430e-010
  -5.81286977348e-011
  +1.95382708371e-010
  +1.93125014703e-010
  -6.48916502699e-011
  +1.88655636996e-010
  +1.86447579801e-010
  -7.15055612408e-011
  +1.82067645597e-010
  +1.79899325134e-010
  -7.80002932690e-011
  +1.75591017721e-010
  +1.73454513328e-010
  -8.43997401991e-011
  +1.69203482872e-010
  +1.67092360515e-010
  -9.07232738429e-011
  +1.62886857141e-010
  +1.60795806496e-010
  -9.69868786371e-011
  +1.56626084763e-010
  +1.54550649621e-010
  -1.03203927141e-010
  +1.50408455409e-010
  -1.07326301676e-010
  +1.46284288695e-010
  -1.11437225280e-010
  +1.42166994169e-010
  -1.15541744944e-010
  +1.38059310788e-010
  -1.19634857596e-010
  +1.33961180073e-010
  -1.23724221709e-010
  +1.29862564813e-010
  -1.27814537952e-010
</dep>
<dep V2.It time>
  -4.52496612268e-004
  -4.52496443363e-004
  -4.52496423054e-004
  -4.52496437825e-004
  -4.52496416736e-004
  -4.52496431720e-004
  -4.52496409636e-004
  -4.52496424677e-004
  -4.52496401461e-004
  -4.52496416331e-004
  -4.52496391760e-004
  -4.52496406103e-004
  -4.52496379757e-004
  -4.52496392828e-004
  -4.52496360434e-004
  -4.52496304121e-004
  -4.52496041925e-004
  -4.52495969526e-004
  -4.52495950046e-004
  -4.52495873653e-004
  -4.52495615256e-004
  -4.54207033511e-004
  -4.63037432186e-004
  -4.64515389149e-004
  -1.29100912963e-004
  -1.32730147333e-004
  -1.33173662980e-004
  -1.33241326487e-004
  -1.33283233368e-004
  -1.33317396070e-004
  -1.33353716066e-004
  -1.33392342038e-004
  -1.33425673218e-004
  -1.33461285020e-004
  -1.33499168890e-004
  -1.33532024288e-004
  -1.33599216103e-004
  -1.36876146987e-004
  -2.31092253641e-004
  -3.01507564005e-004
  -3.03693227641e-004
  -3.04025097241e-004
  -3.04326332734e-004
  -3.04629011606e-004
  -3.04925236750e-004
  -3.05214939469e-004
  -3.05506106258e-004
  -3.05790600834e-004
  -3.06068352267e-004
  -3.06347331495e-004
  -3.06619422384e-004
  -3.06884556656e-004
  -3.07150691201e-004
  -3.07409729933e-004
  -3.07661608276e-004
  -3.07914268586e-004
  -3.08159636044e-004
  -3.08397649370e-004
  -3.08636237221e-004
  -3.08867345568e-004
  -3.09090916627e-004
  -3.09314866378e-004
  -3.09531160966e-004
  -3.09739746122e-004
  -3.09948526477e-004
  -3.10149487374e-004
  -3.10342578079e-004
  -3.10535693570e-004
  -3.10720836919e-004
  -3.10897961392e-004
  -3.11074953315e-004
  -3.11243832792e-004
  -3.11404557285e-004
  -3.11565005181e-004
  -3.11717213173e-004
  -3.11861143064e-004
  -3.12004665913e-004
  -3.12139834640e-004
  -3.12266615511e-004
  -3.12392872789e-004
  -3.12510675307e-004
  -3.12619993888e-004
  -3.12728686521e-004
  -3.12828837629e-004
  -3.12920422688e-004
  -3.13011293864e-004
  -3.13093550888e-004
  -3.13167173966e-004
  -3.13240009859e-004
  -3.13301553676e-004
  -3.13362268780e-004
  -3.13411662854e-004
  -3.13460193646e-004
  -3.13497382048e-004
  -3.13533680151e-004
  -3.13558620684e-004
  -3.13582649508e-004
  -3.13595311222e-004
  -3.13607046790e-004
  -3.13607413303e-004
</dep>
<dep V3.It time>
  +6.42304580977e-016
  -1.47175208839e-010
  -1.49707986984e-010
  -1.51130154382e-010
  -1.53840317794e-010
  -1.55463019922e-010
  -1.58407951625e-010
  -1.60301897643e-010
  -1.63567730587e-010
  -1.65840007873e-010
  -1.69561301947e-010
  -1.72384845096e-010
  -1.76786871221e-010
  -1.80424498204e-010
  -1.84738696140e-010
  -1.65777772232e-010
  -8.99470116642e-011
  -7.67079992285e-011
  -7.67265851360e-011
  -8.13648508530e-011
  -1.69786176312e-010
  -2.56017758612e-010
  -1.12719076687e-009
  -1.08655298023e-008
  -4.88855429796e-008
  -6.74359781165e-008
  -6.96708645380e-008
  -7.02157351901e-008
  -7.02700909150e-008
  -7.06495602005e-008
  -7.08588975887e-008
  -7.08989764896e-008
  -7.12767533795e-008
  -7.14858159654e-008
  -7.15314683330e-008
  -7.24547308193e-008
  -1.30637989273e-007
  -5.76804593624e-006
  -1.38989026744e-004
  -2.33494923430e-004
  -2.36343686140e-004
  -2.36708302707e-004
  -2.37040030431e-004
  -2.37367430862e-004
  -2.37690720575e-004
  -2.38009820938e-004
  -2.38324662996e-004
  -2.38635148111e-004
  -2.38941197782e-004
  -2.39242727493e-004
  -2.39539662544e-004
  -2.39831928087e-004
  -2.40119424627e-004
  -2.40402099894e-004
  -2.40679883357e-004
  -2.40952659832e-004
  -2.41220400390e-004
  -2.41483038271e-004
  -2.41740443379e-004
  -2.41992609551e-004
  -2.42239473920e-004
  -2.42480892556e-004
  -2.42716881353e-004
  -2.42947381320e-004
  -2.43172236129e-004
  -2.43391482636e-004
  -2.43605065743e-004
  -2.43812818543e-004
  -2.44014797265e-004
  -2.44210951176e-004
  -2.44401103892e-004
  -2.44585330237e-004
  -2.44763584049e-004
  -2.44935680251e-004
  -2.45101711763e-004
  -2.45261637136e-004
  -2.45415263293e-004
  -2.45562700823e-004
  -2.45703913125e-004
  -2.45838699715e-004
  -2.45967188486e-004
  -2.46089347787e-004
  -2.46204970307e-004
  -2.46314200879e-004
  -2.46417012894e-004
  -2.46513192727e-004
  -2.46602901817e-004
  -2.46686118687e-004
  -2.46762623868e-004
  -2.46832663817e-004
  -2.46895947051e-004
  -2.46952733620e-004
  -2.47002726004e-004
  -2.47046198518e-004
  -2.47082847562e-004
  -2.47112960233e-004
  -2.47136226243e-004
  -2.47152945493e-004
  -2.47162802460e-004
  -2.47166110505e-004
</dep>
<dep Out.Vt time>
  +1.23066582272e+000
  +1.23066585270e+000
  +1.23066585536e+000
  +1.23066585450e+000
  +1.23066585727e+000
  +1.23066585664e+000
  +1.23066585954e+000
  +1.23066585921e+000
  +1.23066586232e+000
  +1.23066586237e+000
  +1.23066586582e+000
  +1.23066586643e+000
  +1.23066587043e+000
  +1.23066587205e+000
  +1.23066588178e+000
  +1.23066597782e+000
  +1.23066630412e+000
  +1.23066639183e+000
  +1.23066643151e+000
  +1.23066649046e+000
  +1.23066711728e+000
  +1.23067758965e+000
  +1.23090662547e+000
  +1.23528370627e+000
  +4.99517756007e+000
  +4.99459323311e+000
  +4.99402716694e+000
  +4.99347895197e+000
  +4.99294785945e+000
  +4.99243323494e+000
  +4.99193444720e+000
  +4.99145087789e+000
  +4.99098197968e+000
  +4.99052720847e+000
  +4.99008605760e+000
  +4.98965806527e+000
  +4.98924276213e+000
  +4.98883984358e+000
  +4.98844992591e+000
  +4.98806885304e+000
  +4.98770011401e+000
  +4.98734215430e+000
  +4.98699459249e+000
  +4.98665704873e+000
  +4.98632926248e+000
  +4.98601090998e+000
  +4.98570168360e+000
  +4.98540132964e+000
  +4.98510957737e+000
  +4.98482613631e+000
  +4.98455079536e+000
  +4.98428330471e+000
  +4.98402340681e+000
  +4.98377090805e+000
  +4.98352559292e+000
  +4.98328722108e+000
  +4.98305562723e+000
  +4.98283060734e+000
  +4.98261195004e+000
  +4.98239949984e+000
  +4.98219307703e+000
  +4.98199248961e+000
  +4.98179759201e+000
  +4.98160821334e+000
  +4.98142419466e+000
  +4.98124539489e+000
  +4.98107165839e+000
  +4.98090283677e+000
  +4.98073880659e+000
  +4.98057942917e+000
  +4.98042455711e+000
  +4.98027408334e+000
  +4.98012788234e+000
  +4.97998582421e+000
  +4.97984780032e+000
  +4.97971369801e+000
  +4.97958340112e+000
  +4.97945681102e+000
  +4.97933382418e+000
  +4.97921432783e+000
  +4.97909823442e+000
  +4.97898544646e+000
  +4.97887587105e+000
  +4.97876941668e+000
  +4.97866599776e+000
  +4.97856551625e+000
  +4.97846791037e+000
  +4.97837309172e+000
  +4.97828097815e+000
  +4.97819150184e+000
  +4.97810457849e+000
  +4.97802014466e+000
  +4.97793811892e+000
  +4.97785844801e+000
  +4.97778105242e+000
  +4.97770587301e+000
  +4.97763285090e+000
  +4.97756192058e+000
  +4.97749302523e+000
  +4.97742610536e+000
</dep>
<dep _net0.Vt time>
  +3.30000000000e+000
  +3.30000000000e+000
  +3.30000000000e+000
  +3.30000000000e+000
  +3.30000000000e+000
  +3.30000000000e+000
  +3.30000000000e+000
  +3.30000000000e+000
  +3.30000000000e+000
  +3.30000000000e+000
  +3.30000000000e+000
  +3.30000000000e+000
  +3.30000000000e+000
  +3.30000000000e+000
  +3.30000000000e+000
  +3.30000000000e+000
  +3.30000000000e+000
  +3.30000000000e+000
  +3.30000000000e+000
  +3.30000000000e+000
  +3.30000000000e+000
  +3.30000000000e+000
  +3.30000000000e+000
  +3.30000000000e+000
  +3.30000000000e+000
  +3.30000000000e+000
  +3.30000000000e+000
  +3.30000000000e+000
  +3.30000000000e+000
  +3.30000000000e+000
  +3.30000000000e+000
  +3.30000000000e+000
  +3.30000000000e+000
  +3.30000000000e+000
  +3.30000000000e+000
  +3.30000000000e+000
  +3.30000000000e+000
  +3.30000000000e+000
  +3.30000000000e+000
  +3.30000000000e+000
  +3.30000000000e+000
  +3.30000000000e+000
  +3.30000000000e+000
  +3.30000000000e+000
  +3.30000000000e+000
  +3.30000000000e+000
  +3.30000000000e+000
  +3.30000000000e+000
  +3.30000000000e+000
  +3.30000000000e+000
  +3.30000000000e+000
  +3.30000000000e+000
  +3.30000000000e+000
  +3.30000000000e+000
  +3.30000000000e+000
  +3.30000000000e+000
  +3.30000000000e+000
  +3.30000000000e+000
  +3.30000000000e+000
  +3.30000000000e+000
  +3.30000000000e+000
  +3.30000000000e+000
  +3.30000000000e+000
  +3.30000000000e+000
  +3.30000000000e+000
  +3.30000000000e+000
  +3.30000000000e+000
  +3.30000000000e+000
  +3.30000000000e+000
  +3.30000000000e+000
  +3.30000000000e+000
  +3.30000000000e+000
  +3.30000000000e+000
  +3.30000000000e+000
  +3.30000000000e+000
  +3.30000000000e+000
  +3.30000000000e+000
  +3.30000000000e+000
  +3.30000000000e+000
  +3.30000000000e+000
  +3.30000000000e+000
  +3.30000000000e+000
  +3.30000000000e+000
  +3.30000000000e+000
  +3.30000000000e+000
  +3.30000000000e+000
  +3.30000000000e+000
  +3.30000000000e+000
  +3.30000000000e+000
  +3.30000000000e+000
  +3.30000000000e+000
  +3.30000000000e+000
  +3.30000000000e+000
  +3.30000000000e+000
  +3.30000000000e+000
  +3.30000000000e+000
  +3.30000000000e+000
  +3.30000000000e+000
  +3.30000000000e+000
  +3.30000000000e+000
</dep>
<dep In.Vt time>
  +0.00000000000e+000
  +1.42793674513e-001
  +2.85551401483e-001
  +4.28237242414e-001
  +5.70815276909e-001
  +7.13249611711e-001
  +8.55504389738e-001
  +9.97543799109e-001
  +1.13933208216e+000
  +1.28083354446e+000
  +1.42201256376e+000
  +1.56283359900e+000
  +1.70326119924e+000
  +1.84326001259e+000
  +1.98279479508e+000
  +2.12183041958e+000
  +2.26033188463e+000
  +2.39826432321e+000
  +2.53559301157e+000
  +2.67228337795e+000
  +2.80830101129e+000
  +2.94361166986e+000
  +3.07818128993e+000
  +3.21197599433e+000
  +3.34496210094e+000
  +3.47710613124e+000
  +3.60837481866e+000
  +3.73873511702e+000
  +3.86815420880e+000
  +3.99659951345e+000
  +4.12403869555e+000
  +4.25043967295e+000
  +4.37577062490e+000
  +4.50000000000e+000
  +4.62309652416e+000
  +4.74502920849e+000
  +4.86576735710e+000
  +4.98528057479e+000
  +5.10353877476e+000
  +5.22051218614e+000
  +5.33617136149e+000
  +5.45048718424e+000
  +5.56343087599e+000
  +5.67497400376e+000
  +5.78508848718e+000
  +5.89374660551e+000
  +6.00092100465e+000
  +6.10658470401e+000
  +6.21071110334e+000
  +6.31327398936e+000
  +6.41424754241e+000
  +6.51360634295e+000
  +6.61132537792e+000
  +6.70738004708e+000
  +6.80174616919e+000
  +6.89439998807e+000
  +6.98531817863e+000
  +7.07447785269e+000
  +7.16185656478e+000
  +7.24743231778e+000
  +7.33118356845e+000
  +7.41308923287e+000
  +7.49312869171e+000
  +7.57128179548e+000
  +7.64752886955e+000
  +7.72185071911e+000
  +7.79422863406e+000
  +7.86464439363e+000
  +7.93308027103e+000
  +7.99951903789e+000
  +8.06394396862e+000
  +8.12633884458e+000
  +8.18668795819e+000
  +8.24497611689e+000
  +8.30118864694e+000
  +8.35531139714e+000
  +8.40733074239e+000
  +8.45723358707e+000
  +8.50500736843e+000
  +8.55064005967e+000
  +8.59412017300e+000
  +8.63543676253e+000
  +8.67457942704e+000
  +8.71153831257e+000
  +8.74630411491e+000
  +8.77886808197e+000
  +8.80922201593e+000
  +8.83735827536e+000
  +8.86326977711e+000
  +8.88694999809e+000
  +8.90839297693e+000
  +8.92759331548e+000
  +8.94454618015e+000
  +8.95924730316e+000
  +8.97169298357e+000
  +8.98188008825e+000
  +8.98980605265e+000
  +8.99546888145e+000
  +8.99886714906e+000
  +9.00000000000e+000
</dep>
<dep _net1.Vt time>
  +5.00000000000e+000
  +5.00000000000e+000
  +5.00000000000e+000
  +5.00000000000e+000
  +5.00000000000e+000
  +5.00000000000e+000
  +5.00000000000e+000
  +5.00000000000e+000
  +5.00000000000e+000
  +5.00000000000e+000
  +5.00000000000e+000
  +5.00000000000e+000
  +5.00000000000e+000
  +5.00000000000e+000
  +5.00000000000e+000
  +5.00000000000e+000
  +5.00000000000e+000
  +5.00000000000e+000
  +5.00000000000e+000
  +5.00000000000e+000
  +5.00000000000e+000
  +5.00000000000e+000
  +5.00000000000e+000
  +5.00000000000e+000
  +5.00000000000e+000
  +5.00000000000e+000
  +5.00000000000e+000
  +5.00000000000e+000
  +5.00000000000e+000
  +5.00000000000e+000
  +5.00000000000e+000
  +5.00000000000e+000
  +5.00000000000e+000
  +5.00000000000e+000
  +5.00000000000e+000
  +5.00000000000e+000
  +5.00000000000e+000
  +5.00000000000e+000
  +5.00000000000e+000
  +5.00000000000e+000
  +5.00000000000e+000
  +5.00000000000e+000
  +5.00000000000e+000
  +5.00000000000e+000
  +5.00000000000e+000
  +5.00000000000e+000
  +5.00000000000e+000
  +5.00000000000e+000
  +5.00000000000e+000
  +5.00000000000e+000
  +5.00000000000e+000
  +5.00000000000e+000
  +5.00000000000e+000
  +5.00000000000e+000
  +5.00000000000e+000
  +5.00000000000e+000
  +5.00000000000e+000
  +5.00000000000e+000
  +5.00000000000e+000
  +5.00000000000e+000
  +5.00000000000e+000
  +5.00000000000e+000
  +5.00000000000e+000
  +5.00000000000e+000
  +5.00000000000e+000
  +5.00000000000e+000
  +5.00000000000e+000
  +5.00000000000e+000
  +5.00000000000e+000
  +5.00000000000e+000
  +5.00000000000e+000
  +5.00000000000e+000
  +5.00000000000e+000
  +5.00000000000e+000
  +5.00000000000e+000
  +5.00000000000e+000
  +5.00000000000e+000
  +5.00000000000e+000
  +5.00000000000e+000
  +5.00000000000e+000
  +5.00000000000e+000
  +5.00000000000e+000
  +5.00000000000e+000
  +5.00000000000e+000
  +5.00000000000e+000
  +5.00000000000e+000
  +5.00000000000e+000
  +5.00000000000e+000
  +5.00000000000e+000
  +5.00000000000e+000
  +5.00000000000e+000
  +5.00000000000e+000
  +5.00000000000e+000
  +5.00000000000e+000
  +5.00000000000e+000
  +5.00000000000e+000
  +5.00000000000e+000
  +5.00000000000e+000
  +5.00000000000e+000
  +5.00000000000e+000
</dep>
